=~=~=~=~=~=~=~=~=~=~=~= PuTTY log 2025.08.04 04:59:39 =~=~=~=~=~=~=~=~=~=~=~=
Standard ID: 0x567       DLC: 8  Data: 0x40 0x67 0x00 0x00 0x00 0x02 0x00 0x00
Standard ID: 0x5E7       DLC: 8  Data: 0x05 0x67 0x04 0x02 0x00 0x00 0xFF 0xFF
Standard ID: 0x25B       DLC: 8  Data: 0x00 0xFF 0x7F 0x01 0x00 0x00 0xC0 0xC0
Standard ID: 0x25B       DLC: 8  Data: 0x01 0xFF 0x7F 0x00 0x00 0x00 0xC0 0xC0
Standard ID: 0x567       DLC: 8  Data: 0x40 0x67 0x00 0x00 0x00 0x02 0x00 0x00
Standard ID: 0x5E7       DLC: 8  Data: 0x05 0x67 0x04 0x02 0x00 0x00 0xFF 0xFF
Standard ID: 0x567       DLC: 8  Data: 0x40 0x67 0x00 0x00 0x00 0x02 0x00 0x00
Standard ID: 0x5E7       DLC: 8  Data: 0x05 0x67 0x04 0x02 0x00 0x00 0xFF 0xFF
Standard ID: 0x567       DLC: 8  Data: 0x40 0x67 0x00 0x00 0x00 0x02 0x00 0x00
Standard ID: 0x0BF       DLC: 8  Data: 0x00 0x01 0x00 0x81 0x02 0x7F 0x03 0x00
Standard ID: 0x0BF       DLC: 8  Data: 0x01 0x01 0x00 0x81 0x02 0x7F 0x03 0x00
Standard ID: 0x0BF       DLC: 8  Data: 0x02 0x01 0x00 0x85 0x02 0x7F 0x03 0x00
Standard ID: 0x0BF       DLC: 8  Data: 0x03 0x01 0xB0 0x86 0x02 0x7F 0x03 0x00
Standard ID: 0x0BF       DLC: 8  Data: 0x04 0x01 0xB0 0x86 0x02 0x7F 0x03 0x00
Standard ID: 0x0BF       DLC: 8  Data: 0x05 0x01 0x30 0x88 0x02 0x7F 0x03 0x00
Standard ID: 0x0BF       DLC: 8  Data: 0x06 0x01 0xE0 0x88 0x02 0x7F 0x03 0x00
Standard ID: 0x0BF       DLC: 8  Data: 0x07 0x01 0xE0 0x88 0x02 0x7F 0x03 0x00
Standard ID: 0x0BF       DLC: 8  Data: 0x08 0x01 0x50 0x87 0x02 0x7F 0x03 0x00
Standard ID: 0x0BF       DLC: 8  Data: 0x09 0x01 0x90 0x82 0x02 0x7F 0x03 0x00
Standard ID: 0x0BF       DLC: 8  Data: 0x0A 0x01 0x90 0x82 0x02 0x7F 0x03 0x00
Standard ID: 0x5E7       DLC: 8  Data: 0x05 0x67 0x04 0x02 0x00 0x00 0xFF 0xFF
Standard ID: 0x0BF       DLC: 8  Data: 0x0B 0x01 0x20 0x5A 0x02 0x7F 0x03 0x00
Standard ID: 0x0BF       DLC: 8  Data: 0x0C 0x01 0x20 0x5A 0x02 0x7F 0x03 0x00
Standard ID: 0x0BF       DLC: 8  Data: 0x0D 0x01 0x20 0x42 0x02 0x7F 0x03 0x00
Standard ID: 0x0BF       DLC: 8  Data: 0x0E 0x00 0x00 0x00 0x11 0x00 0x00 0x00
Standard ID: 0x567       DLC: 8  Data: 0x40 0x67 0x00 0x00 0x00 0x02 0x00 0x00
Standard ID: 0x5E7       DLC: 8  Data: 0x05 0x67 0x04 0x02 0x00 0x00 0xFF 0xFF
Standard ID: 0x5E7       DLC: 8  Data: 0x05 0x67 0x04 0x02 0x00 0x00 0xFF 0xFF
Standard ID: 0x0BF       DLC: 8  Data: 0x00 0x01 0x40 0x81 0x02 0x7F 0x03 0x00
Standard ID: 0x0BF       DLC: 8  Data: 0x01 0x01 0xE0 0x81 0x02 0x7F 0x03 0x00
Standard ID: 0x0BF       DLC: 8  Data: 0x02 0x01 0xE0 0x81 0x02 0x7F 0x03 0x00
Standard ID: 0x0BF       DLC: 8  Data: 0x03 0x01 0x30 0x83 0x02 0x7F 0x03 0x00
Standard ID: 0x0BF       DLC: 8  Data: 0x04 0x01 0x70 0x84 0x02 0x7F 0x03 0x00
Standard ID: 0x0BF       DLC: 8  Data: 0x05 0x01 0x70 0x84 0x02 0x7F 0x03 0x00
Standard ID: 0x0BF       DLC: 8  Data: 0x06 0x01 0xA0 0x84 0x02 0x7F 0x03 0x00
Standard ID: 0x0BF       DLC: 8  Data: 0x07 0x01 0xA0 0x84 0x02 0x7F 0x03 0x00
Standard ID: 0x567       DLC: 8  Data: 0x40 0x67 0x00 0x00 0x00 0x02 0x00 0x00
Standard ID: 0x0BF       DLC: 8  Data: 0x08 0x01 0xF0 0x84 0x02 0x7F 0x03 0x00
Standard ID: 0x0BF       DLC: 8  Data: 0x09 0x01 0xC0 0x82 0x02 0x7F 0x03 0x00
Standard ID: 0x0BF       DLC: 8  Data: 0x0A 0x01 0xC0 0x82 0x02 0x7F 0x03 0x00
Standard ID: 0x0BF       DLC: 8  Data: 0x0B 0x01 0x30 0x7A 0x02 0x7F 0x03 0x00
Standard ID: 0x0BF       DLC: 8  Data: 0x0C 0x01 0x50 0x6B 0x02 0x7F 0x03 0x00
Standard ID: 0x0BF       DLC: 8  Data: 0x0D 0x01 0x50 0x6B 0x02 0x7F 0x03 0x00
Standard ID: 0x5E7       DLC: 8  Data: 0x27 0x67 0x2D 0xFF 0xFF 0xFF 0xFF 0xFF
Standard ID: 0x0BF       DLC: 8  Data: 0x0E 0x01 0x90 0x60 0x02 0x7F 0x03 0x00
Standard ID: 0x0BF       DLC: 8  Data: 0x00 0x01 0xE0 0x65 0x02 0x7F 0x03 0x00
Standard ID: 0x0BF       DLC: 8  Data: 0x01 0x01 0xE0 0x65 0x02 0x7F 0x03 0x00
Standard ID: 0x0BF       DLC: 8  Data: 0x02 0x01 0xC0 0x68 0x02 0x7F 0x03 0x00
Standard ID: 0x0BF       DLC: 8  Data: 0x03 0x01 0x20 0x6C 0x02 0x7F 0x03 0x00
Standard ID: 0x0BF       DLC: 8  Data: 0x04 0x01 0x20 0x6C 0x02 0x7F 0x03 0x00
Standard ID: 0x0BF       DLC: 8  Data: 0x05 0x01 0xD0 0x68 0x02 0x7F 0x03 0x00
Standard ID: 0x0BF       DLC: 8  Data: 0x06 0x01 0x80 0x6F 0x02 0x7F 0x03 0x00
Standard ID: 0x0BF       DLC: 8  Data: 0x07 0x01 0x80 0x6F 0x02 0x7F 0x03 0x00
Standard ID: 0x0BF       DLC: 8  Data: 0x08 0x01 0x10 0x7A 0x02 0x7F 0x03 0x00
Standard ID: 0x0BF       DLC: 8  Data: 0x09 0x01 0x90 0x7C 0x02 0x7F 0x03 0x00
Standard ID: 0x0BF       DLC: 8  Data: 0x0A 0x01 0x90 0x7C 0x02 0x7F 0x03 0x00
Standard ID: 0x0BF       DLC: 8  Data: 0x0B 0x01 0x00 0x89 0x02 0x7F 0x03 0x00
Standard ID: 0x0BF       DLC: 8  Data: 0x0C 0x01 0x90 0x8D 0x02 0x7F 0x03 0x00
Standard ID: 0x0BF       DLC: 8  Data: 0x0D 0x01 0x90 0x8D 0x02 0x7F 0x03 0x00
Standard ID: 0x0BF       DLC: 8  Data: 0x0E 0x01 0xA0 0x8E 0x02 0x7F 0x03 0x00
Standard ID: 0x0BF       DLC: 8  Data: 0x00 0x01 0xA0 0x8E 0x02 0x7F 0x03 0x00
Standard ID: 0x5E7       DLC: 8  Data: 0x27 0x67 0x2D 0xFF 0xFF 0xFF 0xFF 0xFF
Standard ID: 0x5E7       DLC: 8  Data: 0x05 0x67 0x04 0x02 0x00 0x00 0xFF 0xFF
Standard ID: 0x0BF       DLC: 8  Data: 0x01 0x01 0xD0 0x8E 0x02 0x7F 0x03 0x00
Standard ID: 0x0BF       DLC: 8  Data: 0x02 0x01 0x60 0x8E 0x02 0x7F 0x03 0x00
Standard ID: 0x0BF       DLC: 8  Data: 0x03 0x01 0x60 0x8E 0x02 0x7F 0x03 0x00
Standard ID: 0x0BF       DLC: 8  Data: 0x04 0x01 0xA0 0x8C 0x02 0x7F 0x03 0x00
Standard ID: 0x0BF       DLC: 8  Data: 0x05 0x01 0x50 0x7E 0x02 0x7F 0x03 0x00
Standard ID: 0x0BF       DLC: 8  Data: 0x06 0x01 0x50 0x7E 0x02 0x7F 0x03 0x00
Standard ID: 0x0BF       DLC: 8  Data: 0x07 0x01 0xA0 0x6A 0x02 0x7F 0x03 0x00
Standard ID: 0x0BF       DLC: 8  Data: 0x08 0x01 0x10 0x67 0x02 0x7F 0x03 0x00
Standard ID: 0x0BF       DLC: 8  Data: 0x09 0x01 0x10 0x67 0x02 0x7F 0x03 0x00
Standard ID: 0x0BF       DLC: 8  Data: 0x0A 0x01 0x00 0x65 0x02 0x7F 0x03 0x00
Standard ID: 0x0BF       DLC: 8  Data: 0x0B 0x01 0x40 0x65 0x02 0x7F 0x03 0x00
Standard ID: 0x0BF       DLC: 8  Data: 0x0C 0x01 0x40 0x65 0x02 0x7F 0x03 0x00
Standard ID: 0x0BF       DLC: 8  Data: 0x0D 0x01 0x90 0x67 0x02 0x7F 0x03 0x00
Standard ID: 0x0BF       DLC: 8  Data: 0x0E 0x01 0x90 0x69 0x02 0x7F 0x03 0x00
Standard ID: 0x0BF       DLC: 8  Data: 0x00 0x01 0x90 0x69 0x02 0x7F 0x03 0x00
Standard ID: 0x5E7       DLC: 8  Data: 0x27 0x67 0x2D 0xFF 0xFF 0xFF 0xFF 0xFF
Standard ID: 0x0BF       DLC: 8  Data: 0x01 0x01 0x50 0x6B 0x02 0x7F 0x03 0x00
Standard ID: 0x0BF       DLC: 8  Data: 0x02 0x01 0x10 0x82 0x02 0x7F 0x03 0x00
Standard ID: 0x5E7       DLC: 8  Data: 0x05 0x67 0x04 0x02 0x00 0x00 0xFF 0xFF
Standard ID: 0x0BF       DLC: 8  Data: 0x03 0x01 0x10 0x82 0x02 0x7F 0x03 0x00
Standard ID: 0x0BF       DLC: 8  Data: 0x04 0x01 0x30 0x88 0x02 0x7F 0x03 0x00
Standard ID: 0x0BF       DLC: 8  Data: 0x05 0x01 0x10 0x8B 0x02 0x7F 0x03 0x00
Standard ID: 0x0BF       DLC: 8  Data: 0x06 0x01 0x10 0x8B 0x02 0x7F 0x03 0x00
Standard ID: 0x0BF       DLC: 8  Data: 0x07 0x01 0x30 0x8D 0x02 0x7F 0x03 0x00
Standard ID: 0x0BF       DLC: 8  Data: 0x08 0x01 0x80 0x8E 0x02 0x7F 0x03 0x00
Standard ID: 0x0BF       DLC: 8  Data: 0x09 0x01 0x80 0x8E 0x02 0x7F 0x03 0x00
Standard ID: 0x0BF       DLC: 8  Data: 0x0A 0x01 0x10 0x8F 0x02 0x7F 0x03 0x00
Standard ID: 0x0BF       DLC: 8  Data: 0x0B 0x01 0x10 0x8F 0x02 0x7F 0x03 0x00
Standard ID: 0x0BF       DLC: 8  Data: 0x0C 0x01 0x10 0x8F 0x02 0x7F 0x03 0x00
Standard ID: 0x0BF       DLC: 8  Data: 0x0D 0x01 0x00 0x8F 0x02 0x7F 0x03 0x00
Standard ID: 0x0BF       DLC: 8  Data: 0x0E 0x01 0x10 0x8F 0x02 0x7F 0x03 0x00
Standard ID: 0x0BF       DLC: 8  Data: 0x00 0x01 0x10 0x8F 0x02 0x7F 0x03 0x00
Standard ID: 0x0BF       DLC: 8  Data: 0x01 0x01 0x80 0x8F 0x02 0x7F 0x03 0x00
Standard ID: 0x0BF       DLC: 8  Data: 0x02 0x01 0xF0 0x8F 0x02 0x7F 0x03 0x00
Standard ID: 0x0BF       DLC: 8  Data: 0x03 0x01 0xF0 0x8F 0x02 0x7F 0x03 0x00
Standard ID: 0x5E7       DLC: 8  Data: 0x05 0x67 0x04 0x02 0x00 0x00 0xFF 0xFF
Standard ID: 0x0BF       DLC: 8  Data: 0x04 0x01 0xE0 0x8F 0x02 0x7F 0x03 0x00
Standard ID: 0x0BF       DLC: 8  Data: 0x05 0x01 0xE0 0x8F 0x02 0x7F 0x03 0x00
Standard ID: 0x0BF       DLC: 8  Data: 0x06 0x01 0xE0 0x8F 0x02 0x7F 0x03 0x00
Standard ID: 0x0BF       DLC: 8  Data: 0x07 0x01 0x60 0x90 0x02 0x7F 0x03 0x00
Standard ID: 0x0BF       DLC: 8  Data: 0x08 0x01 0xF0 0x8F 0x02 0x7F 0x03 0x00
Standard ID: 0x0BF       DLC: 8  Data: 0x09 0x01 0xF0 0x8F 0x02 0x7F 0x03 0x00
Standard ID: 0x0BF       DLC: 8  Data: 0x0A 0x01 0xC0 0x90 0x02 0x7F 0x03 0x00
Standard ID: 0x567       DLC: 8  Data: 0x40 0x67 0x00 0x00 0x00 0x02 0x00 0x00
Standard ID: 0x0BF       DLC: 8  Data: 0x0B 0x01 0x20 0x91 0x02 0x7F 0x03 0x00
Standard ID: 0x0BF       DLC: 8  Data: 0x0C 0x01 0x20 0x91 0x02 0x7F 0x03 0x00
Standard ID: 0x0BF       DLC: 8  Data: 0x0D 0x01 0xD0 0x90 0x02 0x7F 0x03 0x00
Standard ID: 0x0BF       DLC: 8  Data: 0x0E 0x01 0x80 0x91 0x02 0x7F 0x03 0x00
Standard ID: 0x0BF       DLC: 8  Data: 0x00 0x01 0x80 0x91 0x02 0x7F 0x03 0x00
Standard ID: 0x0BF       DLC: 8  Data: 0x01 0x01 0xA0 0x91 0x02 0x7F 0x03 0x00
Standard ID: 0x0BF       DLC: 8  Data: 0x02 0x01 0xA0 0x91 0x02 0x7F 0x03 0x00
Standard ID: 0x0BF       DLC: 8  Data: 0x03 0x01 0x30 0x91 0x02 0x7F 0x03 0x00
Standard ID: 0x0BF       DLC: 8  Data: 0x04 0x01 0x30 0x91 0x02 0x7F 0x03 0x00
Standard ID: 0x0BF       DLC: 8  Data: 0x05 0x01 0x30 0x91 0x02 0x7F 0x03 0x00
Standard ID: 0x0BF       DLC: 8  Data: 0x06 0x01 0x80 0x91 0x02 0x7F 0x03 0x00
Standard ID: 0x0BF       DLC: 8  Data: 0x07 0x01 0xE0 0x91 0x02 0x7F 0x03 0x00
Standard ID: 0x0BF       DLC: 8  Data: 0x08 0x01 0xE0 0x91 0x02 0x7F 0x03 0x00
Standard ID: 0x0BF       DLC: 8  Data: 0x09 0x01 0xA0 0x91 0x02 0x7F 0x03 0x00
Standard ID: 0x0BF       DLC: 8  Data: 0x0A 0x01 0xF0 0x91 0x02 0x7F 0x03 0x00
Standard ID: 0x0BF       DLC: 8  Data: 0x0B 0x01 0xF0 0x91 0x02 0x7F 0x03 0x00
Standard ID: 0x0BF       DLC: 8  Data: 0x0C 0x01 0xB0 0x91 0x02 0x7F 0x03 0x00
Standard ID: 0x0BF       DLC: 8  Data: 0x0D 0x01 0xB0 0x91 0x02 0x7F 0x03 0x00
Standard ID: 0x0BF       DLC: 8  Data: 0x0E 0x01 0xB0 0x91 0x02 0x7F 0x03 0x00
Standard ID: 0x0BF       DLC: 8  Data: 0x00 0x01 0xD0 0x91 0x02 0x7F 0x03 0x00
Standard ID: 0x0BF       DLC: 8  Data: 0x01 0x01 0xE0 0x91 0x02 0x7F 0x03 0x00
Standard ID: 0x0BF       DLC: 8  Data: 0x02 0x01 0xE0 0x91 0x02 0x7F 0x03 0x00
Standard ID: 0x0BF       DLC: 8  Data: 0x03 0x01 0xB0 0x91 0x02 0x7F 0x03 0x00
Standard ID: 0x0BF       DLC: 8  Data: 0x04 0x01 0x40 0x92 0x02 0x7F 0x03 0x00
Standard ID: 0x0BF       DLC: 8  Data: 0x05 0x01 0x40 0x92 0x02 0x7F 0x03 0x00
Standard ID: 0x0BF       DLC: 8  Data: 0x06 0x01 0xD0 0x91 0x02 0x7F 0x03 0x00
Standard ID: 0x0BF       DLC: 8  Data: 0x07 0x01 0x20 0x92 0x02 0x7F 0x03 0x00
Standard ID: 0x0BF       DLC: 8  Data: 0x08 0x01 0x20 0x92 0x02 0x7F 0x03 0x00
Standard ID: 0x0BF       DLC: 8  Data: 0x09 0x01 0x50 0x92 0x02 0x7F 0x03 0x00
Standard ID: 0x0BF       DLC: 8  Data: 0x0A 0x01 0xE0 0x91 0x02 0x7F 0x03 0x00
Standard ID: 0x0BF       DLC: 8  Data: 0x0B 0x01 0xE0 0x91 0x02 0x7F 0x03 0x00
Standard ID: 0x0BF       DLC: 8  Data: 0x0C 0x01 0xE0 0x91 0x02 0x7F 0x03 0x00
Standard ID: 0x0BF       DLC: 8  Data: 0x0D 0x01 0xD0 0x91 0x02 0x7F 0x03 0x00
Standard ID: 0x0BF       DLC: 8  Data: 0x0E 0x01 0xD0 0x91 0x02 0x7F 0x03 0x00
Standard ID: 0x0BF       DLC: 8  Data: 0x00 0x01 0x60 0x91 0x02 0x7F 0x03 0x00
Standard ID: 0x0BF       DLC: 8  Data: 0x01 0x01 0x20 0x91 0x02 0x7F 0x03 0x00
Standard ID: 0x0BF       DLC: 8  Data: 0x02 0x01 0x20 0x91 0x02 0x7F 0x03 0x00
Standard ID: 0x0BF       DLC: 8  Data: 0x03 0x01 0x40 0x91 0x02 0x7F 0x03 0x00
Standard ID: 0x0BF       DLC: 8  Data: 0x04 0x01 0x30 0x91 0x02 0x7F 0x03 0x00
Standard ID: 0x0BF       DLC: 8  Data: 0x05 0x01 0x30 0x91 0x02 0x7F 0x03 0x00
Standard ID: 0x0BF       DLC: 8  Data: 0x06 0x01 0x40 0x91 0x02 0x7F 0x03 0x00
Standard ID: 0x0BF       DLC: 8  Data: 0x07 0x01 0x10 0x91 0x02 0x7F 0x03 0x00
Standard ID: 0x0BF       DLC: 8  Data: 0x08 0x01 0x10 0x91 0x02 0x7F 0x03 0x00
Standard ID: 0x0BF       DLC: 8  Data: 0x09 0x01 0xA0 0x91 0x02 0x7F 0x03 0x00
Standard ID: 0x0BF       DLC: 8  Data: 0x0A 0x01 0xB0 0x91 0x02 0x7F 0x03 0x00
Standard ID: 0x0BF       DLC: 8  Data: 0x0B 0x01 0xB0 0x91 0x02 0x7F 0x03 0x00
Standard ID: 0x0BF       DLC: 8  Data: 0x0C 0x01 0xC0 0x91 0x02 0x7F 0x03 0x00
Standard ID: 0x0BF       DLC: 8  Data: 0x0D 0x01 0xD0 0x91 0x02 0x7F 0x03 0x00
Standard ID: 0x0BF       DLC: 8  Data: 0x0E 0x01 0xD0 0x91 0x02 0x7F 0x03 0x00
Standard ID: 0x0BF       DLC: 8  Data: 0x00 0x01 0xD0 0x91 0x02 0x7F 0x03 0x00
Standard ID: 0x0BF       DLC: 8  Data: 0x01 0x01 0xD0 0x91 0x02 0x7F 0x03 0x00
Standard ID: 0x0BF       DLC: 8  Data: 0x02 0x01 0xD0 0x91 0x02 0x7F 0x03 0x00
Standard ID: 0x0BF       DLC: 8  Data: 0x03 0x01 0x60 0x91 0x02 0x7F 0x03 0x00
Standard ID: 0x0BF       DLC: 8  Data: 0x04 0x01 0xC0 0x90 0x02 0x7F 0x03 0x00
Standard ID: 0x0BF       DLC: 8  Data: 0x05 0x01 0xC0 0x90 0x02 0x7F 0x03 0x00
Standard ID: 0x0BF       DLC: 8  Data: 0x06 0x01 0xE0 0x8F 0x02 0x7F 0x03 0x00
Standard ID: 0x0BF       DLC: 8  Data: 0x07 0x01 0x90 0x90 0x02 0x7F 0x03 0x00
Standard ID: 0x0BF       DLC: 8  Data: 0x08 0x01 0x90 0x90 0x02 0x7F 0x03 0x00
Standard ID: 0x0BF       DLC: 8  Data: 0x09 0x01 0x20 0x91 0x02 0x7F 0x03 0x00
Standard ID: 0x0BF       DLC: 8  Data: 0x0A 0x01 0x80 0x91 0x02 0x7F 0x03 0x00
Standard ID: 0x0BF       DLC: 8  Data: 0x0B 0x01 0x80 0x91 0x02 0x7F 0x03 0x00
Standard ID: 0x5E7       DLC: 8  Data: 0x05 0x67 0x04 0x02 0x00 0x00 0xFF 0xFF
Standard ID: 0x0BF       DLC: 8  Data: 0x0C 0x01 0xF0 0x90 0x02 0x7F 0x03 0x00
Standard ID: 0x0BF       DLC: 8  Data: 0x0D 0x01 0xF0 0x90 0x02 0x7F 0x03 0x00
Standard ID: 0x567       DLC: 8  Data: 0x40 0x67 0x00 0x00 0x00 0x02 0x00 0x00
Standard ID: 0x0BF       DLC: 8  Data: 0x0E 0x01 0x80 0x90 0x02 0x7F 0x03 0x00
Standard ID: 0x0BF       DLC: 8  Data: 0x00 0x01 0xA0 0x90 0x02 0x7F 0x03 0x00
Standard ID: 0x0BF       DLC: 8  Data: 0x01 0x01 0xA0 0x90 0x02 0x7F 0x03 0x00
Standard ID: 0x0BF       DLC: 8  Data: 0x02 0x01 0xA0 0x90 0x02 0x7F 0x03 0x00
Standard ID: 0x0BF       DLC: 8  Data: 0x03 0x01 0x80 0x90 0x02 0x7F 0x03 0x00
Standard ID: 0x0BF       DLC: 8  Data: 0x04 0x01 0x80 0x90 0x02 0x7F 0x03 0x00
Standard ID: 0x0BF       DLC: 8  Data: 0x05 0x01 0x30 0x90 0x02 0x7F 0x03 0x00
Standard ID: 0x0BF       DLC: 8  Data: 0x06 0x01 0x40 0x90 0x02 0x7F 0x03 0x00
Standard ID: 0x0BF       DLC: 8  Data: 0x07 0x01 0x40 0x90 0x02 0x7F 0x03 0x00
Standard ID: 0x0BF       DLC: 8  Data: 0x08 0x01 0x30 0x91 0x02 0x7F 0x03 0x00
Standard ID: 0x0BF       DLC: 8  Data: 0x09 0x01 0x40 0x90 0x02 0x7F 0x03 0x00
Standard ID: 0x0BF       DLC: 8  Data: 0x0A 0x01 0x40 0x90 0x02 0x7F 0x03 0x00
Standard ID: 0x0BF       DLC: 8  Data: 0x0B 0x01 0xF0 0x90 0x02 0x7F 0x03 0x00
Standard ID: 0x0BF       DLC: 8  Data: 0x0C 0x01 0x00 0x91 0x02 0x7F 0x03 0x00
Standard ID: 0x0BF       DLC: 8  Data: 0x0D 0x01 0x00 0x91 0x02 0x7F 0x03 0x00
Standard ID: 0x5E7       DLC: 8  Data: 0x05 0x67 0x04 0x02 0x00 0x00 0xFF 0xFF
Standard ID: 0x0BF       DLC: 8  Data: 0x0E 0x01 0x50 0x91 0x02 0x7F 0x03 0x00
Standard ID: 0x0BF       DLC: 8  Data: 0x00 0x01 0x50 0x91 0x02 0x7F 0x03 0x00
Standard ID: 0x0BF       DLC: 8  Data: 0x01 0x01 0x80 0x91 0x02 0x7F 0x03 0x00
Standard ID: 0x0BF       DLC: 8  Data: 0x02 0x01 0x60 0x92 0x02 0x7F 0x03 0x00
Standard ID: 0x0BF       DLC: 8  Data: 0x03 0x01 0x60 0x92 0x02 0x7F 0x03 0x00
Standard ID: 0x0BF       DLC: 8  Data: 0x04 0x01 0xF0 0x91 0x02 0x7F 0x03 0x00
Standard ID: 0x0BF       DLC: 8  Data: 0x05 0x01 0x40 0x92 0x02 0x7F 0x03 0x00
Standard ID: 0x0BF       DLC: 8  Data: 0x06 0x01 0x40 0x92 0x02 0x7F 0x03 0x00
Standard ID: 0x0BF       DLC: 8  Data: 0x07 0x01 0xA0 0x92 0x02 0x7F 0x03 0x00
Standard ID: 0x0BF       DLC: 8  Data: 0x08 0x01 0x70 0x92 0x02 0x7F 0x03 0x00
Standard ID: 0x0BF       DLC: 8  Data: 0x09 0x01 0x70 0x92 0x02 0x7F 0x03 0x00
Standard ID: 0x0BF       DLC: 8  Data: 0x0A 0x01 0x40 0x92 0x02 0x7F 0x03 0x00
Standard ID: 0x0BF       DLC: 8  Data: 0x0B 0x01 0x40 0x92 0x02 0x7F 0x03 0x00
Standard ID: 0x0BF       DLC: 8  Data: 0x0C 0x01 0x40 0x92 0x02 0x7F 0x03 0x00
Standard ID: 0x0BF       DLC: 8  Data: 0x0D 0x01 0xE0 0x91 0x02 0x7F 0x03 0x00
Standard ID: 0x0BF       DLC: 8  Data: 0x0E 0x01 0x30 0x92 0x02 0x7F 0x03 0x00
Standard ID: 0x5E7       DLC: 8  Data: 0x05 0x67 0x04 0x02 0x00 0x00 0xFF 0xFF
Standard ID: 0x0BF       DLC: 8  Data: 0x00 0x01 0x30 0x92 0x02 0x7F 0x03 0x00
Standard ID: 0x0BF       DLC: 8  Data: 0x01 0x01 0x40 0x92 0x02 0x7F 0x03 0x00
Standard ID: 0x0BF       DLC: 8  Data: 0x02 0x01 0x50 0x92 0x02 0x7F 0x03 0x00
Standard ID: 0x0BF       DLC: 8  Data: 0x03 0x01 0x50 0x92 0x02 0x7F 0x03 0x00
Standard ID: 0x0BF       DLC: 8  Data: 0x04 0x01 0x00 0x92 0x02 0x7F 0x03 0x00
Standard ID: 0x0BF       DLC: 8  Data: 0x05 0x01 0xF0 0x91 0x02 0x7F 0x03 0x00
Standard ID: 0x0BF       DLC: 8  Data: 0x06 0x01 0xF0 0x91 0x02 0x7F 0x03 0x00
Standard ID: 0x0BF       DLC: 8  Data: 0x07 0x01 0xF0 0x91 0x02 0x7F 0x03 0x00
Standard ID: 0x0BF       DLC: 8  Data: 0x08 0x01 0x90 0x91 0x02 0x7F 0x03 0x00
Standard ID: 0x0BF       DLC: 8  Data: 0x09 0x01 0x90 0x91 0x02 0x7F 0x03 0x00
Standard ID: 0x0BF       DLC: 8  Data: 0x0A 0x01 0x00 0x92 0x02 0x7F 0x03 0x00
Standard ID: 0x0BF       DLC: 8  Data: 0x0B 0x01 0x10 0x92 0x02 0x7F 0x03 0x00
Standard ID: 0x0BF       DLC: 8  Data: 0x0C 0x01 0x10 0x92 0x02 0x7F 0x03 0x00
Standard ID: 0x0BF       DLC: 8  Data: 0x0D 0x01 0x10 0x92 0x02 0x7F 0x03 0x00
Standard ID: 0x0BF       DLC: 8  Data: 0x0E 0x01 0x80 0x92 0x02 0x7F 0x03 0x00
Standard ID: 0x0BF       DLC: 8  Data: 0x00 0x01 0x80 0x92 0x02 0x7F 0x03 0x00
Standard ID: 0x0BF       DLC: 8  Data: 0x01 0x01 0xF0 0x91 0x02 0x7F 0x03 0x00
Standard ID: 0x0BF       DLC: 8  Data: 0x02 0x01 0xD0 0x91 0x02 0x7F 0x03 0x00
Standard ID: 0x0BF       DLC: 8  Data: 0x03 0x01 0xD0 0x91 0x02 0x7F 0x03 0x00
Standard ID: 0x0BF       DLC: 8  Data: 0x04 0x01 0x30 0x92 0x02 0x7F 0x03 0x00
Standard ID: 0x0BF       DLC: 8  Data: 0x05 0x01 0x90 0x92 0x02 0x7F 0x03 0x00
Standard ID: 0x0BF       DLC: 8  Data: 0x06 0x01 0x90 0x92 0x02 0x7F 0x03 0x00
Standard ID: 0x0BF       DLC: 8  Data: 0x07 0x01 0x40 0x92 0x02 0x7F 0x03 0x00
Standard ID: 0x0BF       DLC: 8  Data: 0x08 0x01 0x40 0x92 0x02 0x7F 0x03 0x00
Standard ID: 0x0BF       DLC: 8  Data: 0x09 0x01 0x40 0x92 0x02 0x7F 0x03 0x00
Standard ID: 0x0BF       DLC: 8  Data: 0x0A 0x01 0x50 0x92 0x02 0x7F 0x03 0x00
Standard ID: 0x0BF       DLC: 8  Data: 0x0B 0x01 0x20 0x92 0x02 0x7F 0x03 0x00
Standard ID: 0x0BF       DLC: 8  Data: 0x0C 0x01 0x20 0x92 0x02 0x7F 0x03 0x00
Standard ID: 0x0BF       DLC: 8  Data: 0x0D 0x01 0x10 0x92 0x02 0x7F 0x03 0x00
Standard ID: 0x0BF       DLC: 8  Data: 0x0E 0x01 0x60 0x92 0x02 0x7F 0x03 0x00
Standard ID: 0x0BF       DLC: 8  Data: 0x00 0x01 0x60 0x92 0x02 0x7F 0x03 0x00
Standard ID: 0x0BF       DLC: 8  Data: 0x01 0x01 0x60 0x92 0x02 0x7F 0x03 0x00
Standard ID: 0x0BF       DLC: 8  Data: 0x02 0x01 0xF0 0x91 0x02 0x7F 0x03 0x00
Standard ID: 0x567       DLC: 8  Data: 0x40 0x67 0x00 0x00 0x00 0x02 0x00 0x00
Standard ID: 0x0BF       DLC: 8  Data: 0x03 0x01 0xF0 0x91 0x02 0x7F 0x03 0x00
Standard ID: 0x0BF       DLC: 8  Data: 0x04 0x01 0x20 0x92 0x02 0x7F 0x03 0x00
Standard ID: 0x0BF       DLC: 8  Data: 0x05 0x01 0x00 0x92 0x02 0x7F 0x03 0x00
Standard ID: 0x0BF       DLC: 8  Data: 0x06 0x01 0x00 0x92 0x02 0x7F 0x03 0x00
Standard ID: 0x0BF       DLC: 8  Data: 0x07 0x01 0x90 0x91 0x02 0x7F 0x03 0x00
Standard ID: 0x0BF       DLC: 8  Data: 0x08 0x01 0x10 0x90 0x02 0x7F 0x03 0x00
Standard ID: 0x0BF       DLC: 8  Data: 0x09 0x01 0x10 0x90 0x02 0x7F 0x03 0x00
Standard ID: 0x0BF       DLC: 8  Data: 0x0A 0x01 0x20 0x7E 0x02 0x7F 0x03 0x00
Standard ID: 0x0BF       DLC: 8  Data: 0x0B 0x01 0xC0 0x4A 0x02 0x7F 0x03 0x00
Standard ID: 0x0BF       DLC: 8  Data: 0x0C 0x01 0xC0 0x4A 0x02 0x7F 0x03 0x00
Standard ID: 0x0BF       DLC: 8  Data: 0x0D 0x00 0x00 0x00 0x11 0x00 0x00 0x00
Standard ID: 0x567       DLC: 8  Data: 0x40 0x67 0x00 0x00 0x00 0x02 0x00 0x00
Standard ID: 0x5E7       DLC: 8  Data: 0x05 0x67 0x04 0x02 0x00 0x00 0xFF 0xFF
Standard ID: 0x25B       DLC: 8  Data: 0x02 0xFF 0x7F 0x00 0x00 0x00 0xC4 0xC0
Standard ID: 0x5E7       DLC: 8  Data: 0x05 0x67 0x04 0x02 0x00 0x00 0xFF 0xFF
Standard ID: 0x5E7       DLC: 8  Data: 0x05 0x67 0x04 0x02 0x00 0x00 0xFF 0xFF
Standard ID: 0x567       DLC: 8  Data: 0x40 0x67 0x00 0x00 0x00 0x02 0x00 0x00
Standard ID: 0x25B       DLC: 8  Data: 0x03 0xFF 0x7F 0x00 0x00 0x00 0xC1 0xC0
Standard ID: 0x25B       DLC: 8  Data: 0x04 0xFF 0x7F 0x00 0x00 0x00 0xC4 0xC0
Standard ID: 0x567       DLC: 8  Data: 0x40 0x67 0x00 0x00 0x00 0x02 0x00 0x00
Standard ID: 0x25B       DLC: 8  Data: 0x05 0xFF 0x7F 0x00 0x00 0x00 0xC1 0xC0
Standard ID: 0x25B       DLC: 8  Data: 0x06 0xFF 0x7F 0x00 0x00 0x00 0xC4 0xC0
Standard ID: 0x567       DLC: 8  Data: 0x40 0x67 0x00 0x00 0x00 0x02 0x00 0x00
Standard ID: 0x25B       DLC: 8  Data: 0x07 0xFF 0x7F 0x00 0x00 0x00 0xC1 0xC0
Standard ID: 0x25B       DLC: 8  Data: 0x08 0xFF 0x7F 0x00 0x00 0x00 0xC4 0xC0
Standard ID: 0x25B       DLC: 8  Data: 0x09 0xFF 0x7F 0x00 0x00 0x00 0xC0 0xC0
Standard ID: 0x567       DLC: 8  Data: 0x40 0x67 0x00 0x00 0x00 0x02 0x00 0x00
Standard ID: 0x5E7       DLC: 8  Data: 0x05 0x67 0x04 0x02 0x00 0x00 0xFF 0xFF
Standard ID: 0x25B       DLC: 8  Data: 0x0A 0xFF 0x7F 0x00 0x00 0x20 0xC0 0xC0
Standard ID: 0x5E7       DLC: 8  Data: 0x05 0x67 0x04 0x02 0x00 0x00 0xFF 0xFF
Standard ID: 0x25B       DLC: 8  Data: 0x0B 0xFF 0x7F 0x00 0x00 0x08 0xC0 0xC0
Standard ID: 0x5E7       DLC: 8  Data: 0x05 0x67 0x04 0x02 0x00 0x00 0xFF 0xFF
Standard ID: 0x25B       DLC: 8  Data: 0x0C 0xFF 0x7F 0x00 0x00 0x20 0xC0 0xC0
Standard ID: 0x567       DLC: 8  Data: 0x40 0x67 0x00 0x00 0x00 0x02 0x00 0x00
Standard ID: 0x25B       DLC: 8  Data: 0x0D 0xFF 0x7F 0x00 0x00 0x08 0xC0 0xC0
Standard ID: 0x25B       DLC: 8  Data: 0x0E 0xFF 0x7F 0x00 0x00 0x20 0xC0 0xC0
Standard ID: 0x25B       DLC: 8  Data: 0x0F 0xFF 0x7F 0x00 0x00 0x00 0xC0 0xC0
Standard ID: 0x5E7       DLC: 8  Data: 0x05 0x67 0x04 0x02 0x00 0x00 0xFF 0xFF
Standard ID: 0x0BF       DLC: 8  Data: 0x0E 0x01 0x50 0x84 0x02 0x7F 0x03 0x00
Standard ID: 0x25B       DLC: 8  Data: 0x10 0xFF 0x7F 0x00 0x00 0x00 0xC0 0xE0
Standard ID: 0x0BF       DLC: 8  Data: 0x00 0x01 0x50 0x84 0x02 0x7F 0x03 0x00
Standard ID: 0x0BF       DLC: 8  Data: 0x01 0x01 0xA0 0x84 0x02 0x7F 0x03 0x00
Standard ID: 0x567       DLC: 8  Data: 0x40 0x67 0x00 0x00 0x00 0x02 0x00 0x00
Standard ID: 0x0BF       DLC: 8  Data: 0x02 0x01 0x30 0x84 0x02 0x7F 0x03 0x00
Standard ID: 0x0BF       DLC: 8  Data: 0x03 0x01 0x30 0x84 0x02 0x7F 0x03 0x00
Standard ID: 0x0BF       DLC: 8  Data: 0x04 0x01 0xA0 0x7D 0x02 0x7F 0x03 0x00
Standard ID: 0x0BF       DLC: 8  Data: 0x05 0x01 0x60 0x7D 0x02 0x7F 0x03 0x00
Standard ID: 0x0BF       DLC: 8  Data: 0x06 0x01 0x60 0x7D 0x02 0x7F 0x03 0x00
Standard ID: 0x0BF       DLC: 8  Data: 0x07 0x01 0x40 0x7D 0x02 0x7F 0x03 0x00
Standard ID: 0x0BF       DLC: 8  Data: 0x08 0x01 0x90 0x7E 0x02 0x7F 0x03 0x00
Standard ID: 0x0BF       DLC: 8  Data: 0x09 0x01 0x90 0x7E 0x02 0x7F 0x03 0x00
Standard ID: 0x0BF       DLC: 8  Data: 0x0A 0x01 0xE0 0x7C 0x02 0x7F 0x03 0x00
Standard ID: 0x0BF       DLC: 8  Data: 0x0B 0x01 0x20 0x7A 0x02 0x7F 0x03 0x00
Standard ID: 0x0BF       DLC: 8  Data: 0x0C 0x01 0x20 0x7A 0x02 0x7F 0x03 0x00
Standard ID: 0x0BF       DLC: 8  Data: 0x0D 0x01 0x60 0x7B 0x02 0x7F 0x03 0x00
Standard ID: 0x0BF       DLC: 8  Data: 0x0E 0x01 0x90 0x7C 0x02 0x7F 0x03 0x00
Standard ID: 0x0BF       DLC: 8  Data: 0x00 0x01 0x90 0x7C 0x02 0x7F 0x03 0x00
Standard ID: 0x5E7       DLC: 8  Data: 0x05 0x67 0x04 0x02 0x00 0x00 0xFF 0xFF
Standard ID: 0x0BF       DLC: 8  Data: 0x01 0x01 0x20 0x7B 0x02 0x7F 0x03 0x00
Standard ID: 0x0BF       DLC: 8  Data: 0x02 0x01 0x30 0x7A 0x02 0x7F 0x03 0x00
Standard ID: 0x0BF       DLC: 8  Data: 0x03 0x01 0x30 0x7A 0x02 0x7F 0x03 0x00
Standard ID: 0x0BF       DLC: 8  Data: 0x04 0x01 0x10 0x79 0x02 0x7F 0x03 0x00
Standard ID: 0x0BF       DLC: 8  Data: 0x05 0x01 0x80 0x78 0x02 0x7F 0x03 0x00
Standard ID: 0x0BF       DLC: 8  Data: 0x06 0x01 0x80 0x78 0x02 0x7F 0x03 0x00
Standard ID: 0x0BF       DLC: 8  Data: 0x07 0x01 0x60 0x79 0x02 0x7F 0x03 0x00
Standard ID: 0x0BF       DLC: 8  Data: 0x08 0x01 0x60 0x79 0x02 0x7F 0x03 0x00
Standard ID: 0x0BF       DLC: 8  Data: 0x09 0x01 0xF0 0x79 0x02 0x7F 0x03 0x00
Standard ID: 0x25B       DLC: 8  Data: 0x11 0xFF 0x7F 0x00 0x00 0x00 0xC0 0xC8
Standard ID: 0x0BF       DLC: 8  Data: 0x0A 0x01 0x10 0x79 0x02 0x7F 0x03 0x00
Standard ID: 0x0BF       DLC: 8  Data: 0x0B 0x01 0x10 0x79 0x02 0x7F 0x03 0x00
Standard ID: 0x0BF       DLC: 8  Data: 0x0C 0x01 0x70 0x74 0x02 0x7F 0x03 0x00
Standard ID: 0x0BF       DLC: 8  Data: 0x0D 0x01 0xB0 0x73 0x02 0x7F 0x03 0x00
Standard ID: 0x0BF       DLC: 8  Data: 0x0E 0x01 0xB0 0x73 0x02 0x7F 0x03 0x00
Standard ID: 0x0BF       DLC: 8  Data: 0x00 0x01 0x30 0x74 0x02 0x7F 0x03 0x00
Standard ID: 0x0BF       DLC: 8  Data: 0x01 0x01 0xE0 0x73 0x02 0x7F 0x03 0x00
Standard ID: 0x5E7       DLC: 8  Data: 0x05 0x67 0x04 0x02 0x00 0x00 0xFF 0xFF
Standard ID: 0x0BF       DLC: 8  Data: 0x02 0x01 0xE0 0x73 0x02 0x7F 0x03 0x00
Standard ID: 0x0BF       DLC: 8  Data: 0x03 0x01 0x80 0x73 0x02 0x7F 0x03 0x00
Standard ID: 0x0BF       DLC: 8  Data: 0x04 0x01 0xE0 0x73 0x02 0x7F 0x03 0x00
Standard ID: 0x0BF       DLC: 8  Data: 0x05 0x01 0xE0 0x73 0x02 0x7F 0x03 0x00
Standard ID: 0x0BF       DLC: 8  Data: 0x06 0x01 0x20 0x74 0x02 0x7F 0x03 0x00
Standard ID: 0x0BF       DLC: 8  Data: 0x07 0x01 0x10 0x75 0x02 0x7F 0x03 0x00
Standard ID: 0x0BF       DLC: 8  Data: 0x08 0x01 0x10 0x75 0x02 0x7F 0x03 0x00
Standard ID: 0x0BF       DLC: 8  Data: 0x09 0x01 0x30 0x77 0x02 0x7F 0x03 0x00
Standard ID: 0x0BF       DLC: 8  Data: 0x0A 0x01 0xA0 0x78 0x02 0x7F 0x03 0x00
Standard ID: 0x0BF       DLC: 8  Data: 0x0B 0x01 0xA0 0x78 0x02 0x7F 0x03 0x00
Standard ID: 0x25B       DLC: 8  Data: 0x12 0xFF 0x7F 0x00 0x00 0x00 0xC0 0xE0
Standard ID: 0x0BF       DLC: 8  Data: 0x0C 0x01 0x60 0x78 0x02 0x7F 0x03 0x00
Standard ID: 0x0BF       DLC: 8  Data: 0x0D 0x01 0xD0 0x77 0x02 0x7F 0x03 0x00
Standard ID: 0x0BF       DLC: 8  Data: 0x0E 0x01 0xD0 0x77 0x02 0x7F 0x03 0x00
Standard ID: 0x0BF       DLC: 8  Data: 0x00 0x01 0xF0 0x77 0x02 0x7F 0x03 0x00
Standard ID: 0x0BF       DLC: 8  Data: 0x01 0x01 0x70 0x6F 0x02 0x7F 0x03 0x00
Standard ID: 0x0BF       DLC: 8  Data: 0x02 0x01 0x70 0x6F 0x02 0x7F 0x03 0x00
Standard ID: 0x0BF       DLC: 8  Data: 0x03 0x01 0xF0 0x68 0x02 0x7F 0x03 0x00
Standard ID: 0x0BF       DLC: 8  Data: 0x04 0x01 0x40 0x5C 0x02 0x7F 0x03 0x00
Standard ID: 0x0BF       DLC: 8  Data: 0x05 0x01 0x40 0x5C 0x02 0x7F 0x03 0x00
Standard ID: 0x0BF       DLC: 8  Data: 0x06 0x01 0x30 0x59 0x02 0x7F 0x03 0x00
Standard ID: 0x0BF       DLC: 8  Data: 0x07 0x01 0x10 0x57 0x02 0x7F 0x03 0x00
Standard ID: 0x0BF       DLC: 8  Data: 0x08 0x01 0x10 0x57 0x02 0x7F 0x03 0x00
Standard ID: 0x0BF       DLC: 8  Data: 0x09 0x00 0x00 0x00 0x11 0x00 0x00 0x00
Standard ID: 0x0BF       DLC: 8  Data: 0x0A 0x01 0xE0 0x5E 0x02 0x7F 0x03 0x00
Standard ID: 0x25B       DLC: 8  Data: 0x13 0xFF 0x7F 0x00 0x00 0x00 0xC0 0xC8
Standard ID: 0x0BF       DLC: 8  Data: 0x0B 0x01 0x70 0x5E 0x02 0x7F 0x03 0x00
Standard ID: 0x0BF       DLC: 8  Data: 0x0C 0x01 0x70 0x5E 0x02 0x7F 0x03 0x00
Standard ID: 0x567       DLC: 8  Data: 0x40 0x67 0x00 0x00 0x00 0x02 0x00 0x00
Standard ID: 0x0BF       DLC: 8  Data: 0x0D 0x01 0xC0 0x5A 0x02 0x7F 0x03 0x00
Standard ID: 0x0BF       DLC: 8  Data: 0x0E 0x01 0x90 0x5B 0x02 0x7F 0x03 0x00
Standard ID: 0x0BF       DLC: 8  Data: 0x00 0x01 0x90 0x5B 0x02 0x7F 0x03 0x00
Standard ID: 0x0BF       DLC: 8  Data: 0x01 0x01 0x90 0x54 0x02 0x7F 0x03 0x00
Standard ID: 0x0BF       DLC: 8  Data: 0x02 0x00 0x00 0x00 0x11 0x00 0x00 0x00
Standard ID: 0x25B       DLC: 8  Data: 0x14 0xFF 0x7F 0x00 0x00 0x00 0xC0 0xE0
Standard ID: 0x25B       DLC: 8  Data: 0x15 0xFF 0x7F 0x00 0x00 0x00 0xC0 0xC0
Standard ID: 0x567       DLC: 8  Data: 0x40 0x67 0x00 0x00 0x00 0x02 0x00 0x00
Standard ID: 0x5E7       DLC: 8  Data: 0x05 0x67 0x04 0x02 0x00 0x00 0xFF 0xFF
Standard ID: 0x25B       DLC: 8  Data: 0x16 0xFF 0x7F 0x00 0x00 0x00 0xE0 0xC0
Standard ID: 0x5E7       DLC: 8  Data: 0x05 0x67 0x04 0x02 0x00 0x00 0xFF 0xFF
Standard ID: 0x25B       DLC: 8  Data: 0x17 0xFF 0x7F 0x00 0x00 0x00 0xC8 0xC0
Standard ID: 0x567       DLC: 8  Data: 0x40 0x67 0x00 0x00 0x00 0x02 0x00 0x00
Standard ID: 0x5E7       DLC: 8  Data: 0x05 0x67 0x04 0x02 0x00 0x00 0xFF 0xFF
Standard ID: 0x25B       DLC: 8  Data: 0x18 0xFF 0x7F 0x00 0x00 0x00 0xE0 0xC0
Standard ID: 0x25B       DLC: 8  Data: 0x19 0xFF 0x7F 0x00 0x00 0x00 0xC8 0xC0
Standard ID: 0x25B       DLC: 8  Data: 0x1A 0xFF 0x7F 0x00 0x00 0x00 0xE0 0xC0
Standard ID: 0x567       DLC: 8  Data: 0x40 0x67 0x00 0x00 0x00 0x02 0x00 0x00
Standard ID: 0x25B       DLC: 8  Data: 0x1B 0xFF 0x7F 0x00 0x00 0x00 0xC0 0xC0
Standard ID: 0x567       DLC: 8  Data: 0x40 0x67 0x00 0x00 0x00 0x02 0x00 0x00
Standard ID: 0x5E7       DLC: 8  Data: 0x05 0x67 0x04 0x02 0x00 0x00 0xFF 0xFF
Standard ID: 0x25B       DLC: 8  Data: 0x1C 0xFF 0x7F 0x00 0x00 0x20 0xC0 0xC0
Standard ID: 0x5E7       DLC: 8  Data: 0x05 0x67 0x04 0x02 0x00 0x00 0xFF 0xFF
Standard ID: 0x5E7       DLC: 8  Data: 0x05 0x67 0x04 0x02 0x00 0x00 0xFF 0xFF
Standard ID: 0x567       DLC: 8  Data: 0x40 0x67 0x00 0x00 0x00 0x02 0x00 0x00
Standard ID: 0x25B       DLC: 8  Data: 0x1D 0xFF 0x7F 0x00 0x00 0x08 0xC0 0xC0
Standard ID: 0x25B       DLC: 8  Data: 0x1E 0xFF 0x7F 0x00 0x00 0x20 0xC0 0xC0
Standard ID: 0x567       DLC: 8  Data: 0x40 0x67 0x00 0x00 0x00 0x02 0x00 0x00
Standard ID: 0x25B       DLC: 8  Data: 0x1F 0xFF 0x7F 0x00 0x00 0x00 0xC0 0xC0
Standard ID: 0x567       DLC: 8  Data: 0x40 0x67 0x00 0x00 0x00 0x02 0x00 0x00
Standard ID: 0x567       DLC: 8  Data: 0x40 0x67 0x00 0x00 0x00 0x02 0x00 0x00
Standard ID: 0x5E7       DLC: 8  Data: 0x05 0x67 0x04 0x02 0x00 0x00 0xFF 0xFF
Standard ID: 0x0BF       DLC: 8  Data: 0x03 0x01 0xC0 0x8F 0x02 0x7F 0x03 0x00
Standard ID: 0x0BF       DLC: 8  Data: 0x04 0x01 0xA0 0x90 0x02 0x7F 0x03 0x00
Standard ID: 0x0BF       DLC: 8  Data: 0x05 0x01 0xA0 0x90 0x02 0x7F 0x03 0x00
Standard ID: 0x0BF       DLC: 8  Data: 0x06 0x01 0x10 0x91 0x02 0x7F 0x03 0x00
Standard ID: 0x0BF       DLC: 8  Data: 0x07 0x01 0x10 0x91 0x02 0x7F 0x03 0x00
Standard ID: 0x0BF       DLC: 8  Data: 0x08 0x01 0x70 0x90 0x02 0x7F 0x03 0x00
Standard ID: 0x0BF       DLC: 8  Data: 0x09 0x01 0x70 0x90 0x02 0x7F 0x03 0x00
Standard ID: 0x0BF       DLC: 8  Data: 0x0A 0x01 0x70 0x90 0x02 0x7F 0x03 0x00
Standard ID: 0x0BF       DLC: 8  Data: 0x0B 0x01 0x60 0x90 0x02 0x7F 0x03 0x00
Standard ID: 0x567       DLC: 8  Data: 0x40 0x67 0x00 0x00 0x00 0x02 0x00 0x00
Standard ID: 0x0BF       DLC: 8  Data: 0x0C 0x01 0x40 0x90 0x02 0x7F 0x03 0x00
Standard ID: 0x0BF       DLC: 8  Data: 0x0D 0x01 0x40 0x90 0x02 0x7F 0x03 0x00
Standard ID: 0x0BF       DLC: 8  Data: 0x0E 0x01 0xC0 0x90 0x02 0x7F 0x03 0x00
Standard ID: 0x0BF       DLC: 8  Data: 0x00 0x01 0x10 0x90 0x02 0x7F 0x03 0x00
Standard ID: 0x0BF       DLC: 8  Data: 0x01 0x01 0x10 0x90 0x02 0x7F 0x03 0x00
Standard ID: 0x0BF       DLC: 8  Data: 0x02 0x01 0x00 0x8F 0x02 0x7F 0x03 0x00
Standard ID: 0x0BF       DLC: 8  Data: 0x03 0x01 0x60 0x88 0x02 0x7F 0x03 0x00
Standard ID: 0x0BF       DLC: 8  Data: 0x04 0x01 0x60 0x88 0x02 0x7F 0x03 0x00
Standard ID: 0x5E7       DLC: 8  Data: 0x05 0x67 0x04 0x02 0x00 0x00 0xFF 0xFF
Standard ID: 0x0BF       DLC: 8  Data: 0x05 0x01 0xF0 0x7C 0x02 0x7F 0x03 0x00
Standard ID: 0x0BF       DLC: 8  Data: 0x06 0x01 0x00 0x70 0x02 0x7F 0x03 0x00
Standard ID: 0x567       DLC: 8  Data: 0x40 0x67 0x00 0x00 0x00 0x02 0x00 0x00
Standard ID: 0x0BF       DLC: 8  Data: 0x07 0x01 0x00 0x70 0x02 0x7F 0x03 0x00
Standard ID: 0x0BF       DLC: 8  Data: 0x08 0x01 0xA0 0x44 0x02 0x7F 0x03 0x00
Standard ID: 0x0BF       DLC: 8  Data: 0x09 0x00 0x00 0x00 0x11 0x00 0x00 0x00
Standard ID: 0x0BF       DLC: 8  Data: 0x0A 0x01 0x40 0x8C 0x02 0x7F 0x03 0x00
Standard ID: 0x0BF       DLC: 8  Data: 0x0B 0x01 0x40 0x8C 0x02 0x7F 0x03 0x00
Standard ID: 0x0BF       DLC: 8  Data: 0x0C 0x01 0xF0 0x8F 0x02 0x7F 0x03 0x00
Standard ID: 0x0BF       DLC: 8  Data: 0x0D 0x01 0xB0 0x91 0x02 0x7F 0x03 0x00
Standard ID: 0x0BF       DLC: 8  Data: 0x0E 0x01 0xB0 0x91 0x02 0x7F 0x03 0x00
Standard ID: 0x0BF       DLC: 8  Data: 0x00 0x01 0xB0 0x91 0x02 0x7F 0x03 0x00
Standard ID: 0x5E7       DLC: 8  Data: 0x05 0x67 0x04 0x02 0x00 0x00 0xFF 0xFF
Standard ID: 0x0BF       DLC: 8  Data: 0x01 0x01 0x10 0x92 0x02 0x7F 0x03 0x00
Standard ID: 0x0BF       DLC: 8  Data: 0x02 0x01 0x10 0x92 0x02 0x7F 0x03 0x00
Standard ID: 0x0BF       DLC: 8  Data: 0x03 0x01 0xE0 0x90 0x02 0x7F 0x03 0x00
Standard ID: 0x0BF       DLC: 8  Data: 0x04 0x01 0xC0 0x77 0x02 0x7F 0x03 0x00
Standard ID: 0x0BF       DLC: 8  Data: 0x05 0x01 0xC0 0x77 0x02 0x7F 0x03 0x00
Standard ID: 0x0BF       DLC: 8  Data: 0x06 0x01 0xF0 0x41 0x02 0x7F 0x03 0x00
Standard ID: 0x0BF       DLC: 8  Data: 0x07 0x00 0x00 0x00 0x11 0x00 0x00 0x00
Standard ID: 0x567       DLC: 8  Data: 0x40 0x67 0x00 0x00 0x00 0x02 0x00 0x00
Standard ID: 0x0BF       DLC: 8  Data: 0x08 0x01 0xC0 0x7D 0x02 0x7F 0x03 0x00
Standard ID: 0x0BF       DLC: 8  Data: 0x09 0x01 0x50 0x82 0x02 0x7F 0x03 0x00
Standard ID: 0x0BF       DLC: 8  Data: 0x0A 0x01 0x50 0x82 0x02 0x7F 0x03 0x00
Standard ID: 0x0BF       DLC: 8  Data: 0x0B 0x01 0x30 0x88 0x02 0x7F 0x03 0x00
Standard ID: 0x0BF       DLC: 8  Data: 0x0C 0x01 0x90 0x8B 0x02 0x7F 0x03 0x00
Standard ID: 0x0BF       DLC: 8  Data: 0x0D 0x01 0x90 0x8B 0x02 0x7F 0x03 0x00
Standard ID: 0x0BF       DLC: 8  Data: 0x0E 0x01 0x20 0x8D 0x02 0x7F 0x03 0x00
Standard ID: 0x0BF       DLC: 8  Data: 0x00 0x01 0xC0 0x8D 0x02 0x7F 0x03 0x00
Standard ID: 0x0BF       DLC: 8  Data: 0x01 0x01 0xC0 0x8D 0x02 0x7F 0x03 0x00
Standard ID: 0x0BF       DLC: 8  Data: 0x02 0x01 0xF0 0x8E 0x02 0x7F 0x03 0x00
Standard ID: 0x0BF       DLC: 8  Data: 0x03 0x01 0x70 0x8F 0x02 0x7F 0x03 0x00
Standard ID: 0x0BF       DLC: 8  Data: 0x04 0x01 0x70 0x8F 0x02 0x7F 0x03 0x00
Standard ID: 0x0BF       DLC: 8  Data: 0x05 0x01 0x20 0x90 0x02 0x7F 0x03 0x00
Standard ID: 0x0BF       DLC: 8  Data: 0x06 0x01 0xD0 0x90 0x02 0x7F 0x03 0x00
Standard ID: 0x0BF       DLC: 8  Data: 0x07 0x01 0xD0 0x90 0x02 0x7F 0x03 0x00
Standard ID: 0x0BF       DLC: 8  Data: 0x08 0x01 0x40 0x91 0x02 0x7F 0x03 0x00
Standard ID: 0x5E7       DLC: 8  Data: 0x05 0x67 0x04 0x02 0x00 0x00 0xFF 0xFF
Standard ID: 0x0BF       DLC: 8  Data: 0x09 0x01 0x70 0x91 0x02 0x7F 0x03 0x00
Standard ID: 0x0BF       DLC: 8  Data: 0x0A 0x01 0xE0 0x91 0x02 0x7F 0x03 0x00
Standard ID: 0x0BF       DLC: 8  Data: 0x0B 0x01 0xC0 0x91 0x02 0x7F 0x03 0x00
Standard ID: 0x0BF       DLC: 8  Data: 0x0C 0x01 0xC0 0x91 0x02 0x7F 0x03 0x00
Standard ID: 0x0BF       DLC: 8  Data: 0x0D 0x01 0x30 0x92 0x02 0x7F 0x03 0x00
Standard ID: 0x0BF       DLC: 8  Data: 0x0E 0x01 0x30 0x92 0x02 0x7F 0x03 0x00
Standard ID: 0x0BF       DLC: 8  Data: 0x00 0x01 0x30 0x92 0x02 0x7F 0x03 0x00
Standard ID: 0x0BF       DLC: 8  Data: 0x01 0x01 0x90 0x92 0x02 0x7F 0x03 0x00
Standard ID: 0x0BF       DLC: 8  Data: 0x02 0x01 0xC0 0x92 0x02 0x7F 0x03 0x00
Standard ID: 0x0BF       DLC: 8  Data: 0x03 0x01 0xC0 0x92 0x02 0x7F 0x03 0x00
Standard ID: 0x0BF       DLC: 8  Data: 0x04 0x01 0x70 0x92 0x02 0x7F 0x03 0x00
Standard ID: 0x0BF       DLC: 8  Data: 0x05 0x01 0x80 0x92 0x02 0x7F 0x03 0x00
Standard ID: 0x0BF       DLC: 8  Data: 0x06 0x01 0x80 0x92 0x02 0x7F 0x03 0x00
Standard ID: 0x0BF       DLC: 8  Data: 0x07 0x01 0x90 0x92 0x02 0x7F 0x03 0x00
Standard ID: 0x567       DLC: 8  Data: 0x40 0x67 0x00 0x00 0x00 0x02 0x00 0x00
Standard ID: 0x0BF       DLC: 8  Data: 0x08 0x01 0xC0 0x92 0x02 0x7F 0x03 0x00
Standard ID: 0x0BF       DLC: 8  Data: 0x09 0x01 0xC0 0x92 0x02 0x7F 0x03 0x00
Standard ID: 0x0BF       DLC: 8  Data: 0x0A 0x01 0xD0 0x92 0x02 0x7F 0x03 0x00
Standard ID: 0x5E7       DLC: 8  Data: 0x05 0x67 0x04 0x02 0x00 0x00 0xFF 0xFF
Standard ID: 0x0BF       DLC: 8  Data: 0x0B 0x01 0x10 0x93 0x02 0x7F 0x03 0x00
Standard ID: 0x0BF       DLC: 8  Data: 0x0C 0x01 0x10 0x93 0x02 0x7F 0x03 0x00
Standard ID: 0x0BF       DLC: 8  Data: 0x0D 0x01 0x60 0x93 0x02 0x7F 0x03 0x00
Standard ID: 0x0BF       DLC: 8  Data: 0x0E 0x01 0x10 0x93 0x02 0x7F 0x03 0x00
Standard ID: 0x0BF       DLC: 8  Data: 0x00 0x01 0x10 0x93 0x02 0x7F 0x03 0x00
Standard ID: 0x0BF       DLC: 8  Data: 0x01 0x01 0xD0 0x92 0x02 0x7F 0x03 0x00
Standard ID: 0x0BF       DLC: 8  Data: 0x02 0x01 0x60 0x93 0x02 0x7F 0x03 0x00
Standard ID: 0x0BF       DLC: 8  Data: 0x03 0x01 0x60 0x93 0x02 0x7F 0x03 0x00
Standard ID: 0x0BF       DLC: 8  Data: 0x04 0x01 0xA0 0x93 0x02 0x7F 0x03 0x00
Standard ID: 0x0BF       DLC: 8  Data: 0x05 0x01 0x40 0x93 0x02 0x7F 0x03 0x00
Standard ID: 0x0BF       DLC: 8  Data: 0x06 0x01 0x40 0x93 0x02 0x7F 0x03 0x00
Standard ID: 0x0BF       DLC: 8  Data: 0x07 0x01 0x70 0x93 0x02 0x7F 0x03 0x00
Standard ID: 0x0BF       DLC: 8  Data: 0x08 0x01 0x10 0x93 0x02 0x7F 0x03 0x00
Standard ID: 0x0BF       DLC: 8  Data: 0x09 0x01 0x10 0x93 0x02 0x7F 0x03 0x00
Standard ID: 0x0BF       DLC: 8  Data: 0x0A 0x01 0x10 0x93 0x02 0x7F 0x03 0x00
Standard ID: 0x0BF       DLC: 8  Data: 0x0B 0x01 0x90 0x93 0x02 0x7F 0x03 0x00
Standard ID: 0x5E7       DLC: 8  Data: 0x05 0x67 0x04 0x02 0x00 0x00 0xFF 0xFF
Standard ID: 0x0BF       DLC: 8  Data: 0x0C 0x01 0x90 0x93 0x02 0x7F 0x03 0x00
Standard ID: 0x0BF       DLC: 8  Data: 0x0D 0x01 0x30 0x93 0x02 0x7F 0x03 0x00
Standard ID: 0x0BF       DLC: 8  Data: 0x0E 0x01 0x30 0x93 0x02 0x7F 0x03 0x00
Standard ID: 0x0BF       DLC: 8  Data: 0x00 0x01 0x30 0x93 0x02 0x7F 0x03 0x00
Standard ID: 0x0BF       DLC: 8  Data: 0x01 0x01 0x50 0x93 0x02 0x7F 0x03 0x00
Standard ID: 0x0BF       DLC: 8  Data: 0x02 0x01 0x50 0x93 0x02 0x7F 0x03 0x00
Standard ID: 0x0BF       DLC: 8  Data: 0x03 0x01 0x50 0x93 0x02 0x7F 0x03 0x00
Standard ID: 0x0BF       DLC: 8  Data: 0x04 0x01 0xB0 0x93 0x02 0x7F 0x03 0x00
Standard ID: 0x0BF       DLC: 8  Data: 0x05 0x01 0xB0 0x93 0x02 0x7F 0x03 0x00
Standard ID: 0x0BF       DLC: 8  Data: 0x06 0x01 0x50 0x93 0x02 0x7F 0x03 0x00
Standard ID: 0x0BF       DLC: 8  Data: 0x07 0x01 0x70 0x93 0x02 0x7F 0x03 0x00
Standard ID: 0x0BF       DLC: 8  Data: 0x08 0x01 0x70 0x93 0x02 0x7F 0x03 0x00
Standard ID: 0x0BF       DLC: 8  Data: 0x09 0x01 0x00 0x93 0x02 0x7F 0x03 0x00
Standard ID: 0x0BF       DLC: 8  Data: 0x0A 0x01 0x10 0x93 0x02 0x7F 0x03 0x00
Standard ID: 0x0BF       DLC: 8  Data: 0x0B 0x01 0x10 0x93 0x02 0x7F 0x03 0x00
Standard ID: 0x0BF       DLC: 8  Data: 0x0C 0x01 0x70 0x93 0x02 0x7F 0x03 0x00
Standard ID: 0x0BF       DLC: 8  Data: 0x0D 0x01 0x90 0x93 0x02 0x7F 0x03 0x00
Standard ID: 0x0BF       DLC: 8  Data: 0x0E 0x01 0x90 0x93 0x02 0x7F 0x03 0x00
Standard ID: 0x0BF       DLC: 8  Data: 0x00 0x01 0xF0 0x93 0x02 0x7F 0x03 0x00
Standard ID: 0x0BF       DLC: 8  Data: 0x01 0x01 0x80 0x93 0x02 0x7F 0x03 0x00
Standard ID: 0x0BF       DLC: 8  Data: 0x02 0x01 0x80 0x93 0x02 0x7F 0x03 0x00
Standard ID: 0x0BF       DLC: 8  Data: 0x03 0x01 0x60 0x93 0x02 0x7F 0x03 0x00
Standard ID: 0x0BF       DLC: 8  Data: 0x04 0x01 0x60 0x93 0x02 0x7F 0x03 0x00
Standard ID: 0x0BF       DLC: 8  Data: 0x05 0x01 0x60 0x93 0x02 0x7F 0x03 0x00
Standard ID: 0x0BF       DLC: 8  Data: 0x06 0x01 0x60 0x93 0x02 0x7F 0x03 0x00
Standard ID: 0x0BF       DLC: 8  Data: 0x07 0x01 0x40 0x93 0x02 0x7F 0x03 0x00
Standard ID: 0x0BF       DLC: 8  Data: 0x08 0x01 0x40 0x93 0x02 0x7F 0x03 0x00
Standard ID: 0x0BF       DLC: 8  Data: 0x09 0x01 0xA0 0x93 0x02 0x7F 0x03 0x00
Standard ID: 0x0BF       DLC: 8  Data: 0x0A 0x01 0xA0 0x93 0x02 0x7F 0x03 0x00
Standard ID: 0x0BF       DLC: 8  Data: 0x0B 0x01 0xA0 0x93 0x02 0x7F 0x03 0x00
Standard ID: 0x25B       DLC: 8  Data: 0x20 0xFF 0x7F 0xA0 0x00 0x00 0xC0 0xC0
Standard ID: 0x0BF       DLC: 8  Data: 0x0C 0x01 0x80 0x93 0x02 0x7F 0x03 0x00
Standard ID: 0x0BF       DLC: 8  Data: 0x0D 0x01 0x80 0x93 0x02 0x7F 0x03 0x00
Standard ID: 0x0BF       DLC: 8  Data: 0x0E 0x01 0x80 0x93 0x02 0x7F 0x03 0x00
Standard ID: 0x0BF       DLC: 8  Data: 0x00 0x01 0x20 0x93 0x02 0x7F 0x03 0x00
Standard ID: 0x0BF       DLC: 8  Data: 0x01 0x01 0x90 0x93 0x02 0x7F 0x03 0x00
Standard ID: 0x0BF       DLC: 8  Data: 0x02 0x01 0x90 0x93 0x02 0x7F 0x03 0x00
Standard ID: 0x0BF       DLC: 8  Data: 0x03 0x01 0x10 0x93 0x02 0x7F 0x03 0x00
Standard ID: 0x0BF       DLC: 8  Data: 0x04 0x01 0xE0 0x92 0x02 0x7F 0x03 0x00
Standard ID: 0x0BF       DLC: 8  Data: 0x05 0x01 0xE0 0x92 0x02 0x7F 0x03 0x00
Standard ID: 0x0BF       DLC: 8  Data: 0x06 0x01 0x50 0x93 0x02 0x7F 0x03 0x00
Standard ID: 0x0BF       DLC: 8  Data: 0x07 0x01 0xF0 0x93 0x02 0x7F 0x03 0x00
Standard ID: 0x0BF       DLC: 8  Data: 0x08 0x01 0xF0 0x93 0x02 0x7F 0x03 0x00
Standard ID: 0x0BF       DLC: 8  Data: 0x09 0x01 0x80 0x93 0x02 0x7F 0x03 0x00
Standard ID: 0x0BF       DLC: 8  Data: 0x0A 0x01 0x60 0x93 0x02 0x7F 0x03 0x00
Standard ID: 0x0BF       DLC: 8  Data: 0x0B 0x01 0x60 0x93 0x02 0x7F 0x03 0x00
Standard ID: 0x567       DLC: 8  Data: 0x40 0x67 0x00 0x00 0x00 0x02 0x00 0x00
Standard ID: 0x25B       DLC: 8  Data: 0x21 0xFF 0x7F 0x00 0x00 0x00 0xC0 0xC0
Standard ID: 0x0BF       DLC: 8  Data: 0x0D 0x01 0xF0 0x92 0x02 0x7F 0x03 0x00
Standard ID: 0x0BF       DLC: 8  Data: 0x0C 0x01 0x60 0x93 0x02 0x7F 0x03 0x00
Standard ID: 0x0BF       DLC: 8  Data: 0x0E 0x01 0xF0 0x92 0x02 0x7F 0x03 0x00
Standard ID: 0x0BF       DLC: 8  Data: 0x00 0x01 0x50 0x93 0x02 0x7F 0x03 0x00
Standard ID: 0x0BF       DLC: 8  Data: 0x01 0x01 0x90 0x93 0x02 0x7F 0x03 0x00
Standard ID: 0x0BF       DLC: 8  Data: 0x02 0x01 0x90 0x93 0x02 0x7F 0x03 0x00
Standard ID: 0x0BF       DLC: 8  Data: 0x03 0x01 0xC0 0x93 0x02 0x7F 0x03 0x00
Standard ID: 0x0BF       DLC: 8  Data: 0x04 0x01 0x70 0x93 0x02 0x7F 0x03 0x00
Standard ID: 0x0BF       DLC: 8  Data: 0x05 0x01 0x70 0x93 0x02 0x7F 0x03 0x00
Standard ID: 0x0BF       DLC: 8  Data: 0x06 0x01 0x90 0x93 0x02 0x7F 0x03 0x00
Standard ID: 0x0BF       DLC: 8  Data: 0x07 0x01 0x80 0x93 0x02 0x7F 0x03 0x00
Standard ID: 0x0BF       DLC: 8  Data: 0x08 0x01 0x80 0x93 0x02 0x7F 0x03 0x00
Standard ID: 0x0BF       DLC: 8  Data: 0x09 0x01 0x00 0x94 0x02 0x7F 0x03 0x00
Standard ID: 0x0BF       DLC: 8  Data: 0x0A 0x01 0xC0 0x93 0x02 0x7F 0x03 0x00
Standard ID: 0x0BF       DLC: 8  Data: 0x0B 0x01 0xC0 0x93 0x02 0x7F 0x03 0x00
Standard ID: 0x0BF       DLC: 8  Data: 0x0C 0x01 0x40 0x93 0x02 0x7F 0x03 0x00
Standard ID: 0x0BF       DLC: 8  Data: 0x0D 0x01 0x50 0x93 0x02 0x7F 0x03 0x00
Standard ID: 0x0BF       DLC: 8  Data: 0x0E 0x01 0x50 0x93 0x02 0x7F 0x03 0x00
Standard ID: 0x0BF       DLC: 8  Data: 0x00 0x01 0xD0 0x93 0x02 0x7F 0x03 0x00
Standard ID: 0x0BF       DLC: 8  Data: 0x01 0x01 0x10 0x93 0x02 0x7F 0x03 0x00
Standard ID: 0x0BF       DLC: 8  Data: 0x02 0x01 0x10 0x93 0x02 0x7F 0x03 0x00
Standard ID: 0x0BF       DLC: 8  Data: 0x03 0x01 0x50 0x93 0x02 0x7F 0x03 0x00
Standard ID: 0x0BF       DLC: 8  Data: 0x04 0x01 0x60 0x93 0x02 0x7F 0x03 0x00
Standard ID: 0x5E7       DLC: 8  Data: 0x05 0x67 0x04 0x02 0x00 0x00 0xFF 0xFF
Standard ID: 0x0BF       DLC: 8  Data: 0x05 0x01 0x10 0x93 0x02 0x7F 0x03 0x00
Standard ID: 0x0BF       DLC: 8  Data: 0x06 0x01 0xE0 0x92 0x02 0x7F 0x03 0x00
Standard ID: 0x0BF       DLC: 8  Data: 0x07 0x01 0xE0 0x92 0x02 0x7F 0x03 0x00
Standard ID: 0x0BF       DLC: 8  Data: 0x08 0x01 0xE0 0x92 0x02 0x7F 0x03 0x00
Standard ID: 0x0BF       DLC: 8  Data: 0x09 0x01 0x60 0x92 0x02 0x7F 0x03 0x00
Standard ID: 0x0BF       DLC: 8  Data: 0x0A 0x01 0x60 0x92 0x02 0x7F 0x03 0x00
Standard ID: 0x0BF       DLC: 8  Data: 0x0B 0x01 0x10 0x8F 0x02 0x7F 0x03 0x00
Standard ID: 0x0BF       DLC: 8  Data: 0x0C 0x01 0xB0 0x47 0x02 0x7F 0x03 0x00
Standard ID: 0x0BF       DLC: 8  Data: 0x0D 0x01 0xB0 0x47 0x02 0x7F 0x03 0x00
Standard ID: 0x0BF       DLC: 8  Data: 0x0E 0x00 0x00 0x00 0x11 0x00 0x00 0x00
Standard ID: 0x5E7       DLC: 8  Data: 0x05 0x67 0x04 0x02 0x00 0x00 0xFF 0xFF
Standard ID: 0x5E7       DLC: 8  Data: 0x05 0x67 0x04 0x02 0x00 0x00 0xFF 0xFF
Standard ID: 0x567       DLC: 8  Data: 0x40 0x67 0x00 0x00 0x00 0x02 0x00 0x00
Standard ID: 0x0BF       DLC: 8  Data: 0x00 0x01 0x00 0x6C 0x02 0x7F 0x03 0x00
Standard ID: 0x0BF       DLC: 8  Data: 0x01 0x01 0x00 0x6C 0x02 0x7F 0x03 0x00
Standard ID: 0x0BF       DLC: 8  Data: 0x02 0x01 0x80 0x70 0x02 0x7F 0x03 0x00
Standard ID: 0x0BF       DLC: 8  Data: 0x03 0x01 0xA0 0x76 0x02 0x7F 0x03 0x00
Standard ID: 0x0BF       DLC: 8  Data: 0x04 0x01 0xA0 0x76 0x02 0x7F 0x03 0x00
Standard ID: 0x0BF       DLC: 8  Data: 0x05 0x01 0x30 0x7A 0x02 0x7F 0x03 0x00
Standard ID: 0x0BF       DLC: 8  Data: 0x06 0x01 0x80 0x7B 0x02 0x7F 0x03 0x00
Standard ID: 0x0BF       DLC: 8  Data: 0x07 0x01 0x80 0x7B 0x02 0x7F 0x03 0x00
Standard ID: 0x0BF       DLC: 8  Data: 0x08 0x01 0x80 0x7B 0x02 0x7F 0x03 0x00
Standard ID: 0x0BF       DLC: 8  Data: 0x09 0x01 0x00 0x78 0x02 0x7F 0x03 0x00
Standard ID: 0x0BF       DLC: 8  Data: 0x0A 0x01 0x00 0x78 0x02 0x7F 0x03 0x00
Standard ID: 0x0BF       DLC: 8  Data: 0x0B 0x01 0x30 0x6E 0x02 0x7F 0x03 0x00
Standard ID: 0x0BF       DLC: 8  Data: 0x0C 0x01 0x10 0x6B 0x02 0x7F 0x03 0x00
Standard ID: 0x0BF       DLC: 8  Data: 0x0D 0x01 0x10 0x6B 0x02 0x7F 0x03 0x00
Standard ID: 0x0BF       DLC: 8  Data: 0x0E 0x01 0xB0 0x65 0x02 0x7F 0x03 0x00
Standard ID: 0x0BF       DLC: 8  Data: 0x00 0x01 0x30 0x5F 0x02 0x7F 0x03 0x00
Standard ID: 0x0BF       DLC: 8  Data: 0x01 0x01 0x30 0x5F 0x02 0x7F 0x03 0x00
Standard ID: 0x0BF       DLC: 8  Data: 0x02 0x01 0x30 0x62 0x02 0x7F 0x03 0x00
Standard ID: 0x0BF       DLC: 8  Data: 0x03 0x01 0x40 0x63 0x02 0x7F 0x03 0x00
Standard ID: 0x0BF       DLC: 8  Data: 0x04 0x01 0x40 0x63 0x02 0x7F 0x03 0x00
Standard ID: 0x0BF       DLC: 8  Data: 0x05 0x01 0x60 0x69 0x02 0x7F 0x03 0x00
Standard ID: 0x0BF       DLC: 8  Data: 0x06 0x01 0x20 0x85 0x02 0x7F 0x03 0x00
Standard ID: 0x0BF       DLC: 8  Data: 0x07 0x01 0x20 0x85 0x02 0x7F 0x03 0x00
Standard ID: 0x0BF       DLC: 8  Data: 0x08 0x01 0x30 0x8D 0x02 0x7F 0x03 0x00
Standard ID: 0x0BF       DLC: 8  Data: 0x09 0x01 0xF0 0x8F 0x02 0x7F 0x03 0x00
Standard ID: 0x0BF       DLC: 8  Data: 0x0A 0x01 0xF0 0x8F 0x02 0x7F 0x03 0x00
Standard ID: 0x0BF       DLC: 8  Data: 0x0B 0x01 0xB0 0x91 0x02 0x7F 0x03 0x00
Standard ID: 0x0BF       DLC: 8  Data: 0x0C 0x01 0x80 0x92 0x02 0x7F 0x03 0x00
Standard ID: 0x0BF       DLC: 8  Data: 0x0D 0x01 0x80 0x92 0x02 0x7F 0x03 0x00
Standard ID: 0x0BF       DLC: 8  Data: 0x0E 0x01 0xB0 0x92 0x02 0x7F 0x03 0x00
Standard ID: 0x0BF       DLC: 8  Data: 0x00 0x01 0xC0 0x92 0x02 0x7F 0x03 0x00
Standard ID: 0x0BF       DLC: 8  Data: 0x01 0x01 0xC0 0x92 0x02 0x7F 0x03 0x00
Standard ID: 0x0BF       DLC: 8  Data: 0x02 0x01 0xA0 0x93 0x02 0x7F 0x03 0x00
Standard ID: 0x0BF       DLC: 8  Data: 0x03 0x01 0xA0 0x93 0x02 0x7F 0x03 0x00
Standard ID: 0x0BF       DLC: 8  Data: 0x04 0x01 0xA0 0x93 0x02 0x7F 0x03 0x00
Standard ID: 0x0BF       DLC: 8  Data: 0x05 0x01 0xA0 0x93 0x02 0x7F 0x03 0x00
Standard ID: 0x0BF       DLC: 8  Data: 0x06 0x01 0x80 0x93 0x02 0x7F 0x03 0x00
Standard ID: 0x0BF       DLC: 8  Data: 0x07 0x01 0x80 0x93 0x02 0x7F 0x03 0x00
Standard ID: 0x0BF       DLC: 8  Data: 0x08 0x01 0xB0 0x93 0x02 0x7F 0x03 0x00
Standard ID: 0x0BF       DLC: 8  Data: 0x09 0x01 0xB0 0x93 0x02 0x7F 0x03 0x00
Standard ID: 0x0BF       DLC: 8  Data: 0x0A 0x01 0x00 0x94 0x02 0x7F 0x03 0x00
Standard ID: 0x0BF       DLC: 8  Data: 0x0B 0x01 0x30 0x94 0x02 0x7F 0x03 0x00
Standard ID: 0x0BF       DLC: 8  Data: 0x0C 0x01 0x30 0x94 0x02 0x7F 0x03 0x00
Standard ID: 0x0BF       DLC: 8  Data: 0x0D 0x01 0xB0 0x93 0x02 0x7F 0x03 0x00
Standard ID: 0x0BF       DLC: 8  Data: 0x0E 0x01 0xB0 0x93 0x02 0x7F 0x03 0x00
Standard ID: 0x0BF       DLC: 8  Data: 0x00 0x01 0xB0 0x93 0x02 0x7F 0x03 0x00
Standard ID: 0x0BF       DLC: 8  Data: 0x01 0x01 0xA0 0x93 0x02 0x7F 0x03 0x00
Standard ID: 0x0BF       DLC: 8  Data: 0x02 0x01 0x40 0x94 0x02 0x7F 0x03 0x00
Standard ID: 0x0BF       DLC: 8  Data: 0x03 0x01 0x40 0x94 0x02 0x7F 0x03 0x00
Standard ID: 0x0BF       DLC: 8  Data: 0x04 0x01 0x10 0x94 0x02 0x7F 0x03 0x00
Standard ID: 0x0BF       DLC: 8  Data: 0x05 0x01 0x20 0x94 0x02 0x7F 0x03 0x00
Standard ID: 0x0BF       DLC: 8  Data: 0x06 0x01 0x20 0x94 0x02 0x7F 0x03 0x00
Standard ID: 0x0BF       DLC: 8  Data: 0x07 0x01 0x50 0x94 0x02 0x7F 0x03 0x00
Standard ID: 0x0BF       DLC: 8  Data: 0x08 0x01 0xD0 0x93 0x02 0x7F 0x03 0x00
Standard ID: 0x0BF       DLC: 8  Data: 0x09 0x01 0xD0 0x93 0x02 0x7F 0x03 0x00
Standard ID: 0x0BF       DLC: 8  Data: 0x0A 0x01 0x20 0x94 0x02 0x7F 0x03 0x00
Standard ID: 0x0BF       DLC: 8  Data: 0x0B 0x01 0x80 0x94 0x02 0x7F 0x03 0x00
Standard ID: 0x0BF       DLC: 8  Data: 0x0C 0x01 0x80 0x94 0x02 0x7F 0x03 0x00
Standard ID: 0x0BF       DLC: 8  Data: 0x0D 0x01 0x20 0x94 0x02 0x7F 0x03 0x00
Standard ID: 0x5E7       DLC: 8  Data: 0x05 0x67 0x04 0x02 0x00 0x00 0xFF 0xFF
Standard ID: 0x0BF       DLC: 8  Data: 0x0E 0x01 0x40 0x94 0x02 0x7F 0x03 0x00
Standard ID: 0x0BF       DLC: 8  Data: 0x00 0x01 0x40 0x94 0x02 0x7F 0x03 0x00
Standard ID: 0x567       DLC: 8  Data: 0x40 0x67 0x00 0x00 0x00 0x02 0x00 0x00
Standard ID: 0x0BF       DLC: 8  Data: 0x01 0x01 0x50 0x94 0x02 0x7F 0x03 0x00
Standard ID: 0x0BF       DLC: 8  Data: 0x02 0x01 0x50 0x94 0x02 0x7F 0x03 0x00
Standard ID: 0x0BF       DLC: 8  Data: 0x03 0x01 0x50 0x94 0x02 0x7F 0x03 0x00
Standard ID: 0x0BF       DLC: 8  Data: 0x04 0x01 0x10 0x95 0x02 0x7F 0x03 0x00
Standard ID: 0x0BF       DLC: 8  Data: 0x05 0x01 0x10 0x95 0x02 0x7F 0x03 0x00
Standard ID: 0x0BF       DLC: 8  Data: 0x06 0x01 0x70 0x94 0x02 0x7F 0x03 0x00
Standard ID: 0x0BF       DLC: 8  Data: 0x07 0x01 0x40 0x94 0x02 0x7F 0x03 0x00
Standard ID: 0x0BF       DLC: 8  Data: 0x08 0x01 0x40 0x94 0x02 0x7F 0x03 0x00
Standard ID: 0x25B       DLC: 8  Data: 0x22 0xFF 0x7F 0x40 0x00 0x00 0xC0 0xC0
Standard ID: 0x0BF       DLC: 8  Data: 0x09 0x01 0xF0 0x93 0x02 0x7F 0x03 0x00
Standard ID: 0x0BF       DLC: 8  Data: 0x0A 0x01 0x10 0x94 0x02 0x7F 0x03 0x00
Standard ID: 0x0BF       DLC: 8  Data: 0x0B 0x01 0x10 0x94 0x02 0x7F 0x03 0x00
Standard ID: 0x0BF       DLC: 8  Data: 0x0C 0x01 0x50 0x94 0x02 0x7F 0x03 0x00
Standard ID: 0x0BF       DLC: 8  Data: 0x0D 0x01 0x10 0x94 0x02 0x7F 0x03 0x00
Standard ID: 0x0BF       DLC: 8  Data: 0x0E 0x01 0x10 0x94 0x02 0x7F 0x03 0x00
Standard ID: 0x0BF       DLC: 8  Data: 0x00 0x01 0x30 0x94 0x02 0x7F 0x03 0x00
Standard ID: 0x5E7       DLC: 8  Data: 0x05 0x67 0x04 0x02 0x00 0x00 0xFF 0xFF
Standard ID: 0x0BF       DLC: 8  Data: 0x01 0x01 0x30 0x94 0x02 0x7F 0x03 0x00
Standard ID: 0x0BF       DLC: 8  Data: 0x02 0x01 0x30 0x94 0x02 0x7F 0x03 0x00
Standard ID: 0x0BF       DLC: 8  Data: 0x03 0x01 0x30 0x94 0x02 0x7F 0x03 0x00
Standard ID: 0x0BF       DLC: 8  Data: 0x04 0x01 0x50 0x94 0x02 0x7F 0x03 0x00
Standard ID: 0x0BF       DLC: 8  Data: 0x05 0x01 0x50 0x94 0x02 0x7F 0x03 0x00
Standard ID: 0x0BF       DLC: 8  Data: 0x06 0x01 0x20 0x94 0x02 0x7F 0x03 0x00
Standard ID: 0x0BF       DLC: 8  Data: 0x07 0x01 0x90 0x94 0x02 0x7F 0x03 0x00
Standard ID: 0x0BF       DLC: 8  Data: 0x08 0x01 0x90 0x94 0x02 0x7F 0x03 0x00
Standard ID: 0x0BF       DLC: 8  Data: 0x09 0x01 0xF0 0x93 0x02 0x7F 0x03 0x00
Standard ID: 0x0BF       DLC: 8  Data: 0x0A 0x01 0x90 0x94 0x02 0x7F 0x03 0x00
Standard ID: 0x0BF       DLC: 8  Data: 0x0B 0x01 0x90 0x94 0x02 0x7F 0x03 0x00
Standard ID: 0x0BF       DLC: 8  Data: 0x0C 0x01 0x90 0x94 0x02 0x7F 0x03 0x00
Standard ID: 0x0BF       DLC: 8  Data: 0x0D 0x01 0x10 0x94 0x02 0x7F 0x03 0x00
Standard ID: 0x0BF       DLC: 8  Data: 0x0E 0x01 0x10 0x94 0x02 0x7F 0x03 0x00
Standard ID: 0x0BF       DLC: 8  Data: 0x00 0x01 0x50 0x94 0x02 0x7F 0x03 0x00
Standard ID: 0x0BF       DLC: 8  Data: 0x01 0x01 0xA0 0x94 0x02 0x7F 0x03 0x00
Standard ID: 0x5E7       DLC: 8  Data: 0x05 0x67 0x04 0x02 0x00 0x00 0xFF 0xFF
Standard ID: 0x0BF       DLC: 8  Data: 0x02 0x01 0xA0 0x94 0x02 0x7F 0x03 0x00
Standard ID: 0x0BF       DLC: 8  Data: 0x03 0x01 0x50 0x94 0x02 0x7F 0x03 0x00
Standard ID: 0x0BF       DLC: 8  Data: 0x04 0x01 0x50 0x94 0x02 0x7F 0x03 0x00
Standard ID: 0x0BF       DLC: 8  Data: 0x05 0x01 0x50 0x94 0x02 0x7F 0x03 0x00
Standard ID: 0x0BF       DLC: 8  Data: 0x06 0x01 0xA0 0x94 0x02 0x7F 0x03 0x00
Standard ID: 0x0BF       DLC: 8  Data: 0x07 0x01 0x30 0x94 0x02 0x7F 0x03 0x00
Standard ID: 0x0BF       DLC: 8  Data: 0x08 0x01 0x30 0x94 0x02 0x7F 0x03 0x00
Standard ID: 0x0BF       DLC: 8  Data: 0x09 0x01 0x30 0x94 0x02 0x7F 0x03 0x00
Standard ID: 0x0BF       DLC: 8  Data: 0x0A 0x01 0x70 0x94 0x02 0x7F 0x03 0x00
Standard ID: 0x0BF       DLC: 8  Data: 0x0B 0x01 0x70 0x94 0x02 0x7F 0x03 0x00
Standard ID: 0x0BF       DLC: 8  Data: 0x0C 0x01 0x00 0x94 0x02 0x7F 0x03 0x00
Standard ID: 0x0BF       DLC: 8  Data: 0x0D 0x01 0xE0 0x93 0x02 0x7F 0x03 0x00
Standard ID: 0x0BF       DLC: 8  Data: 0x0E 0x01 0xE0 0x93 0x02 0x7F 0x03 0x00
Standard ID: 0x0BF       DLC: 8  Data: 0x00 0x01 0x50 0x94 0x02 0x7F 0x03 0x00
Standard ID: 0x0BF       DLC: 8  Data: 0x01 0x01 0xF0 0x93 0x02 0x7F 0x03 0x00
Standard ID: 0x0BF       DLC: 8  Data: 0x02 0x01 0xF0 0x93 0x02 0x7F 0x03 0x00
Standard ID: 0x0BF       DLC: 8  Data: 0x03 0x01 0xD0 0x93 0x02 0x7F 0x03 0x00
Standard ID: 0x0BF       DLC: 8  Data: 0x04 0x01 0xD0 0x93 0x02 0x7F 0x03 0x00
Standard ID: 0x0BF       DLC: 8  Data: 0x05 0x01 0x40 0x94 0x02 0x7F 0x03 0x00
Standard ID: 0x0BF       DLC: 8  Data: 0x06 0x01 0x40 0x94 0x02 0x7F 0x03 0x00
Standard ID: 0x0BF       DLC: 8  Data: 0x07 0x01 0x40 0x94 0x02 0x7F 0x03 0x00
Standard ID: 0x0BF       DLC: 8  Data: 0x08 0x01 0x00 0x94 0x02 0x7F 0x03 0x00
Standard ID: 0x0BF       DLC: 8  Data: 0x09 0x01 0x00 0x94 0x02 0x7F 0x03 0x00
Standard ID: 0x0BF       DLC: 8  Data: 0x0A 0x01 0x00 0x94 0x02 0x7F 0x03 0x00
Standard ID: 0x0BF       DLC: 8  Data: 0x0B 0x01 0x60 0x94 0x02 0x7F 0x03 0x00
Standard ID: 0x0BF       DLC: 8  Data: 0x0C 0x01 0xF0 0x93 0x02 0x7F 0x03 0x00
Standard ID: 0x0BF       DLC: 8  Data: 0x0D 0x01 0xF0 0x93 0x02 0x7F 0x03 0x00
Standard ID: 0x0BF       DLC: 8  Data: 0x0E 0x01 0x20 0x94 0x02 0x7F 0x03 0x00
Standard ID: 0x0BF       DLC: 8  Data: 0x00 0x01 0x30 0x94 0x02 0x7F 0x03 0x00
Standard ID: 0x0BF       DLC: 8  Data: 0x01 0x01 0x30 0x94 0x02 0x7F 0x03 0x00
Standard ID: 0x0BF       DLC: 8  Data: 0x02 0x01 0x70 0x94 0x02 0x7F 0x03 0x00
Standard ID: 0x0BF       DLC: 8  Data: 0x03 0x01 0x80 0x94 0x02 0x7F 0x03 0x00
Standard ID: 0x0BF       DLC: 8  Data: 0x04 0x01 0x80 0x94 0x02 0x7F 0x03 0x00
Standard ID: 0x567       DLC: 8  Data: 0x40 0x67 0x00 0x00 0x00 0x02 0x00 0x00
Standard ID: 0x0BF       DLC: 8  Data: 0x05 0x01 0x50 0x94 0x02 0x7F 0x03 0x00
Standard ID: 0x0BF       DLC: 8  Data: 0x06 0x01 0xA0 0x94 0x02 0x7F 0x03 0x00
Standard ID: 0x0BF       DLC: 8  Data: 0x07 0x01 0xA0 0x94 0x02 0x7F 0x03 0x00
Standard ID: 0x0BF       DLC: 8  Data: 0x08 0x01 0x40 0x94 0x02 0x7F 0x03 0x00
Standard ID: 0x0BF       DLC: 8  Data: 0x09 0x01 0x80 0x94 0x02 0x7F 0x03 0x00
Standard ID: 0x0BF       DLC: 8  Data: 0x0A 0x01 0x80 0x94 0x02 0x7F 0x03 0x00
Standard ID: 0x0BF       DLC: 8  Data: 0x0B 0x01 0x80 0x94 0x02 0x7F 0x03 0x00
Standard ID: 0x0BF       DLC: 8  Data: 0x0C 0x01 0x80 0x94 0x02 0x7F 0x03 0x00
Standard ID: 0x0BF       DLC: 8  Data: 0x0D 0x01 0x80 0x94 0x02 0x7F 0x03 0x00
Standard ID: 0x0BF       DLC: 8  Data: 0x0E 0x01 0x40 0x94 0x02 0x7F 0x03 0x00
Standard ID: 0x0BF       DLC: 8  Data: 0x00 0x01 0x50 0x94 0x02 0x7F 0x03 0x00
Standard ID: 0x0BF       DLC: 8  Data: 0x01 0x01 0x50 0x94 0x02 0x7F 0x03 0x00
Standard ID: 0x0BF       DLC: 8  Data: 0x02 0x01 0x50 0x94 0x02 0x7F 0x03 0x00
Standard ID: 0x0BF       DLC: 8  Data: 0x03 0x01 0xC0 0x94 0x02 0x7F 0x03 0x00
Standard ID: 0x0BF       DLC: 8  Data: 0x04 0x01 0xC0 0x94 0x02 0x7F 0x03 0x00
Standard ID: 0x0BF       DLC: 8  Data: 0x05 0x01 0x70 0x94 0x02 0x7F 0x03 0x00
Standard ID: 0x0BF       DLC: 8  Data: 0x06 0x01 0xA0 0x93 0x02 0x7F 0x03 0x00
Standard ID: 0x0BF       DLC: 8  Data: 0x07 0x01 0xA0 0x93 0x02 0x7F 0x03 0x00
Standard ID: 0x0BF       DLC: 8  Data: 0x08 0x01 0x60 0x94 0x02 0x7F 0x03 0x00
Standard ID: 0x0BF       DLC: 8  Data: 0x09 0x01 0x20 0x94 0x02 0x7F 0x03 0x00
Standard ID: 0x25B       DLC: 8  Data: 0x23 0xFF 0x7F 0x00 0x00 0x00 0xC0 0xC0
Standard ID: 0x0BF       DLC: 8  Data: 0x0A 0x01 0x20 0x94 0x02 0x7F 0x03 0x00
Standard ID: 0x0BF       DLC: 8  Data: 0x0B 0x01 0x70 0x94 0x02 0x7F 0x03 0x00
Standard ID: 0x0BF       DLC: 8  Data: 0x0C 0x01 0xD0 0x94 0x02 0x7F 0x03 0x00
Standard ID: 0x0BF       DLC: 8  Data: 0x0D 0x01 0xD0 0x94 0x02 0x7F 0x03 0x00
Standard ID: 0x0BF       DLC: 8  Data: 0x0E 0x01 0x40 0x94 0x02 0x7F 0x03 0x00
Standard ID: 0x0BF       DLC: 8  Data: 0x00 0x01 0x10 0x94 0x02 0x7F 0x03 0x00
Standard ID: 0x0BF       DLC: 8  Data: 0x01 0x01 0x10 0x94 0x02 0x7F 0x03 0x00
Standard ID: 0x0BF       DLC: 8  Data: 0x02 0x01 0x60 0x94 0x02 0x7F 0x03 0x00
Standard ID: 0x0BF       DLC: 8  Data: 0x03 0x01 0x50 0x94 0x02 0x7F 0x03 0x00
Standard ID: 0x0BF       DLC: 8  Data: 0x04 0x01 0x50 0x94 0x02 0x7F 0x03 0x00
Standard ID: 0x0BF       DLC: 8  Data: 0x05 0x01 0x40 0x94 0x02 0x7F 0x03 0x00
Standard ID: 0x0BF       DLC: 8  Data: 0x06 0x01 0xB0 0x93 0x02 0x7F 0x03 0x00
Standard ID: 0x0BF       DLC: 8  Data: 0x07 0x01 0xB0 0x93 0x02 0x7F 0x03 0x00
Standard ID: 0x0BF       DLC: 8  Data: 0x08 0x01 0xD0 0x93 0x02 0x7F 0x03 0x00
Standard ID: 0x0BF       DLC: 8  Data: 0x09 0x01 0x40 0x94 0x02 0x7F 0x03 0x00
Standard ID: 0x5E7       DLC: 8  Data: 0x05 0x67 0x04 0x02 0x00 0x00 0xFF 0xFF
Standard ID: 0x0BF       DLC: 8  Data: 0x0A 0x01 0x60 0x93 0x02 0x7F 0x03 0x00
Standard ID: 0x0BF       DLC: 8  Data: 0x0B 0x01 0x00 0x94 0x02 0x7F 0x03 0x00
Standard ID: 0x0BF       DLC: 8  Data: 0x0C 0x01 0x00 0x94 0x02 0x7F 0x03 0x00
Standard ID: 0x0BF       DLC: 8  Data: 0x0D 0x01 0xD0 0x93 0x02 0x7F 0x03 0x00
Standard ID: 0x0BF       DLC: 8  Data: 0x0E 0x01 0xE0 0x92 0x02 0x7F 0x03 0x00
Standard ID: 0x0BF       DLC: 8  Data: 0x00 0x01 0xE0 0x92 0x02 0x7F 0x03 0x00
Standard ID: 0x0BF       DLC: 8  Data: 0x01 0x01 0x50 0x91 0x02 0x7F 0x03 0x00
Standard ID: 0x0BF       DLC: 8  Data: 0x02 0x01 0x50 0x4B 0x02 0x7F 0x03 0x00
Standard ID: 0x0BF       DLC: 8  Data: 0x03 0x01 0x50 0x4B 0x02 0x7F 0x03 0x00
Standard ID: 0x0BF       DLC: 8  Data: 0x04 0x00 0x00 0x00 0x11 0x00 0x00 0x00
Standard ID: 0x5E7       DLC: 8  Data: 0x05 0x67 0x04 0x02 0x00 0x00 0xFF 0xFF
Standard ID: 0x0BF       DLC: 8  Data: 0x05 0x01 0xF0 0x85 0x02 0x7F 0x03 0x00
Standard ID: 0x0BF       DLC: 8  Data: 0x06 0x01 0x20 0x89 0x02 0x7F 0x03 0x00
Standard ID: 0x0BF       DLC: 8  Data: 0x07 0x01 0x20 0x89 0x02 0x7F 0x03 0x00
Standard ID: 0x0BF       DLC: 8  Data: 0x08 0x01 0x40 0x8C 0x02 0x7F 0x03 0x00
Standard ID: 0x0BF       DLC: 8  Data: 0x09 0x01 0xB0 0x8D 0x02 0x7F 0x03 0x00
Standard ID: 0x567       DLC: 8  Data: 0x40 0x67 0x00 0x00 0x00 0x02 0x00 0x00
Standard ID: 0x0BF       DLC: 8  Data: 0x0A 0x01 0xB0 0x8D 0x02 0x7F 0x03 0x00
Standard ID: 0x0BF       DLC: 8  Data: 0x0B 0x01 0x80 0x8F 0x02 0x7F 0x03 0x00
Standard ID: 0x0BF       DLC: 8  Data: 0x0C 0x01 0x50 0x90 0x02 0x7F 0x03 0x00
Standard ID: 0x0BF       DLC: 8  Data: 0x0D 0x01 0x50 0x90 0x02 0x7F 0x03 0x00
Standard ID: 0x0BF       DLC: 8  Data: 0x0E 0x01 0x20 0x91 0x02 0x7F 0x03 0x00
Standard ID: 0x5E7       DLC: 8  Data: 0x05 0x67 0x04 0x02 0x00 0x00 0xFF 0xFF
Standard ID: 0x0BF       DLC: 8  Data: 0x00 0x01 0xD0 0x91 0x02 0x7F 0x03 0x00
Standard ID: 0x0BF       DLC: 8  Data: 0x01 0x01 0xD0 0x91 0x02 0x7F 0x03 0x00
Standard ID: 0x0BF       DLC: 8  Data: 0x02 0x01 0x40 0x92 0x02 0x7F 0x03 0x00
Standard ID: 0x0BF       DLC: 8  Data: 0x03 0x01 0x00 0x93 0x02 0x7F 0x03 0x00
Standard ID: 0x0BF       DLC: 8  Data: 0x04 0x01 0x00 0x93 0x02 0x7F 0x03 0x00
Standard ID: 0x0BF       DLC: 8  Data: 0x05 0x01 0xC0 0x92 0x02 0x7F 0x03 0x00
Standard ID: 0x0BF       DLC: 8  Data: 0x06 0x01 0x20 0x93 0x02 0x7F 0x03 0x00
Standard ID: 0x0BF       DLC: 8  Data: 0x07 0x01 0x20 0x93 0x02 0x7F 0x03 0x00
Standard ID: 0x0BF       DLC: 8  Data: 0x08 0x01 0xA0 0x93 0x02 0x7F 0x03 0x00
Standard ID: 0x0BF       DLC: 8  Data: 0x09 0x01 0x60 0x93 0x02 0x7F 0x03 0x00
Standard ID: 0x0BF       DLC: 8  Data: 0x0A 0x01 0x60 0x93 0x02 0x7F 0x03 0x00
Standard ID: 0x0BF       DLC: 8  Data: 0x0B 0x01 0x60 0x93 0x02 0x7F 0x03 0x00
Standard ID: 0x0BF       DLC: 8  Data: 0x0C 0x01 0x30 0x93 0x02 0x7F 0x03 0x00
Standard ID: 0x0BF       DLC: 8  Data: 0x0D 0x01 0x30 0x93 0x02 0x7F 0x03 0x00
Standard ID: 0x0BF       DLC: 8  Data: 0x0E 0x01 0x60 0x93 0x02 0x7F 0x03 0x00
Standard ID: 0x25B       DLC: 8  Data: 0x24 0xFF 0x7F 0xA0 0x00 0x00 0xC0 0xC0
Standard ID: 0x0BF       DLC: 8  Data: 0x00 0x01 0x60 0x93 0x02 0x7F 0x03 0x00
Standard ID: 0x0BF       DLC: 8  Data: 0x01 0x01 0x60 0x93 0x02 0x7F 0x03 0x00
Standard ID: 0x0BF       DLC: 8  Data: 0x02 0x01 0x10 0x93 0x02 0x7F 0x03 0x00
Standard ID: 0x0BF       DLC: 8  Data: 0x03 0x01 0x80 0x93 0x02 0x7F 0x03 0x00
Standard ID: 0x0BF       DLC: 8  Data: 0x04 0x01 0x80 0x93 0x02 0x7F 0x03 0x00
Standard ID: 0x0BF       DLC: 8  Data: 0x05 0x01 0x90 0x93 0x02 0x7F 0x03 0x00
Standard ID: 0x0BF       DLC: 8  Data: 0x06 0x01 0xD0 0x92 0x02 0x7F 0x03 0x00
Standard ID: 0x0BF       DLC: 8  Data: 0x07 0x01 0xD0 0x92 0x02 0x7F 0x03 0x00
Standard ID: 0x0BF       DLC: 8  Data: 0x08 0x01 0x60 0x93 0x02 0x7F 0x03 0x00
Standard ID: 0x0BF       DLC: 8  Data: 0x09 0x01 0x30 0x93 0x02 0x7F 0x03 0x00
Standard ID: 0x0BF       DLC: 8  Data: 0x0A 0x01 0x30 0x93 0x02 0x7F 0x03 0x00
Standard ID: 0x0BF       DLC: 8  Data: 0x0B 0x01 0x60 0x93 0x02 0x7F 0x03 0x00
Standard ID: 0x0BF       DLC: 8  Data: 0x0C 0x01 0x70 0x93 0x02 0x7F 0x03 0x00
Standard ID: 0x0BF       DLC: 8  Data: 0x0D 0x01 0x70 0x93 0x02 0x7F 0x03 0x00
Standard ID: 0x0BF       DLC: 8  Data: 0x0E 0x01 0xA0 0x93 0x02 0x7F 0x03 0x00
Standard ID: 0x0BF       DLC: 8  Data: 0x00 0x01 0x30 0x93 0x02 0x7F 0x03 0x00
Standard ID: 0x0BF       DLC: 8  Data: 0x01 0x01 0x30 0x93 0x02 0x7F 0x03 0x00
Standard ID: 0x0BF       DLC: 8  Data: 0x02 0x01 0xF0 0x93 0x02 0x7F 0x03 0x00
Standard ID: 0x0BF       DLC: 8  Data: 0x03 0x01 0x60 0x93 0x02 0x7F 0x03 0x00
Standard ID: 0x0BF       DLC: 8  Data: 0x04 0x01 0x60 0x93 0x02 0x7F 0x03 0x00
Standard ID: 0x0BF       DLC: 8  Data: 0x05 0x01 0xD0 0x93 0x02 0x7F 0x03 0x00
Standard ID: 0x0BF       DLC: 8  Data: 0x06 0x01 0xC0 0x93 0x02 0x7F 0x03 0x00
Standard ID: 0x0BF       DLC: 8  Data: 0x07 0x01 0xC0 0x93 0x02 0x7F 0x03 0x00
Standard ID: 0x0BF       DLC: 8  Data: 0x08 0x01 0x50 0x93 0x02 0x7F 0x03 0x00
Standard ID: 0x0BF       DLC: 8  Data: 0x09 0x01 0x50 0x93 0x02 0x7F 0x03 0x00
Standard ID: 0x0BF       DLC: 8  Data: 0x0A 0x01 0x50 0x93 0x02 0x7F 0x03 0x00
Standard ID: 0x0BF       DLC: 8  Data: 0x0B 0x01 0x20 0x94 0x02 0x7F 0x03 0x00
Standard ID: 0x0BF       DLC: 8  Data: 0x0C 0x01 0x20 0x94 0x02 0x7F 0x03 0x00
Standard ID: 0x0BF       DLC: 8  Data: 0x0D 0x01 0x20 0x94 0x02 0x7F 0x03 0x00
Standard ID: 0x0BF       DLC: 8  Data: 0x0E 0x01 0xA0 0x93 0x02 0x7F 0x03 0x00
Standard ID: 0x0BF       DLC: 8  Data: 0x00 0x01 0x70 0x93 0x02 0x7F 0x03 0x00
Standard ID: 0x0BF       DLC: 8  Data: 0x01 0x01 0x70 0x93 0x02 0x7F 0x03 0x00
Standard ID: 0x0BF       DLC: 8  Data: 0x02 0x01 0x70 0x93 0x02 0x7F 0x03 0x00
Standard ID: 0x0BF       DLC: 8  Data: 0x03 0x01 0xE0 0x93 0x02 0x7F 0x03 0x00
Standard ID: 0x0BF       DLC: 8  Data: 0x04 0x01 0xE0 0x93 0x02 0x7F 0x03 0x00
Standard ID: 0x25B       DLC: 8  Data: 0x25 0xFF 0x7F 0x00 0x00 0x00 0xC0 0xC0
Standard ID: 0x0BF       DLC: 8  Data: 0x05 0x01 0x80 0x93 0x02 0x7F 0x03 0x00
Standard ID: 0x0BF       DLC: 8  Data: 0x06 0x01 0xB0 0x93 0x02 0x7F 0x03 0x00
Standard ID: 0x0BF       DLC: 8  Data: 0x07 0x01 0xB0 0x93 0x02 0x7F 0x03 0x00
Standard ID: 0x0BF       DLC: 8  Data: 0x08 0x01 0xF0 0x93 0x02 0x7F 0x03 0x00
Standard ID: 0x0BF       DLC: 8  Data: 0x09 0x01 0xA0 0x93 0x02 0x7F 0x03 0x00
Standard ID: 0x0BF       DLC: 8  Data: 0x0A 0x01 0xA0 0x93 0x02 0x7F 0x03 0x00
Standard ID: 0x0BF       DLC: 8  Data: 0x0B 0x01 0xF0 0x93 0x02 0x7F 0x03 0x00
Standard ID: 0x0BF       DLC: 8  Data: 0x0C 0x01 0xD0 0x93 0x02 0x7F 0x03 0x00
Standard ID: 0x0BF       DLC: 8  Data: 0x0D 0x01 0xD0 0x93 0x02 0x7F 0x03 0x00
Standard ID: 0x567       DLC: 8  Data: 0x40 0x67 0x00 0x00 0x00 0x02 0x00 0x00
Standard ID: 0x0BF       DLC: 8  Data: 0x0E 0x01 0xF0 0x92 0x02 0x7F 0x03 0x00
Standard ID: 0x0BF       DLC: 8  Data: 0x00 0x01 0xF0 0x92 0x02 0x7F 0x03 0x00
Standard ID: 0x0BF       DLC: 8  Data: 0x01 0x01 0x30 0x93 0x02 0x7F 0x03 0x00
Standard ID: 0x0BF       DLC: 8  Data: 0x02 0x01 0xD0 0x92 0x02 0x7F 0x03 0x00
Standard ID: 0x0BF       DLC: 8  Data: 0x03 0x01 0xD0 0x92 0x02 0x7F 0x03 0x00
Standard ID: 0x0BF       DLC: 8  Data: 0x04 0x01 0x20 0x93 0x02 0x7F 0x03 0x00
Standard ID: 0x0BF       DLC: 8  Data: 0x05 0x01 0x10 0x93 0x02 0x7F 0x03 0x00
Standard ID: 0x0BF       DLC: 8  Data: 0x06 0x01 0x10 0x93 0x02 0x7F 0x03 0x00
Standard ID: 0x0BF       DLC: 8  Data: 0x07 0x01 0x30 0x93 0x02 0x7F 0x03 0x00
Standard ID: 0x5E7       DLC: 8  Data: 0x05 0x67 0x04 0x02 0x00 0x00 0xFF 0xFF
Standard ID: 0x0BF       DLC: 8  Data: 0x08 0x01 0xF0 0x92 0x02 0x7F 0x03 0x00
Standard ID: 0x0BF       DLC: 8  Data: 0x09 0x01 0x60 0x93 0x02 0x7F 0x03 0x00
Standard ID: 0x0BF       DLC: 8  Data: 0x0A 0x01 0xF0 0x92 0x02 0x7F 0x03 0x00
Standard ID: 0x0BF       DLC: 8  Data: 0x0B 0x01 0xF0 0x92 0x02 0x7F 0x03 0x00
Standard ID: 0x0BF       DLC: 8  Data: 0x0C 0x01 0xE0 0x91 0x02 0x7F 0x03 0x00
Standard ID: 0x0BF       DLC: 8  Data: 0x0D 0x01 0x30 0x8D 0x02 0x7F 0x03 0x00
Standard ID: 0x0BF       DLC: 8  Data: 0x0E 0x01 0x30 0x8D 0x02 0x7F 0x03 0x00
Standard ID: 0x0BF       DLC: 8  Data: 0x00 0x01 0xD0 0x47 0x02 0x7F 0x03 0x00
Standard ID: 0x0BF       DLC: 8  Data: 0x01 0x00 0x00 0x00 0x11 0x00 0x00 0x00
Standard ID: 0x5E7       DLC: 8  Data: 0x05 0x67 0x04 0x02 0x00 0x00 0xFF 0xFF
Standard ID: 0x5E7       DLC: 8  Data: 0x05 0x67 0x04 0x02 0x00 0x00 0xFF 0xFF
Standard ID: 0x567       DLC: 8  Data: 0x40 0x67 0x00 0x00 0x00 0x02 0x00 0x00
Standard ID: 0x567       DLC: 8  Data: 0x40 0x67 0x00 0x00 0x00 0x02 0x00 0x00
Standard ID: 0x5E7       DLC: 8  Data: 0x05 0x67 0x04 0x02 0x00 0x00 0xFF 0xFF
Standard ID: 0x25B       DLC: 8  Data: 0x00 0xFF 0x7F 0x01 0x00 0x00 0xC0 0xC0
Standard ID: 0x25B       DLC: 8  Data: 0x01 0xFF 0x7F 0x00 0x00 0x00 0xC0 0xC0
Standard ID: 0x567       DLC: 8  Data: 0x40 0x67 0x00 0x00 0x00 0x02 0x00 0x00
Standard ID: 0x5E7       DLC: 8  Data: 0x05 0x67 0x04 0x02 0x00 0x00 0xFF 0xFF
Standard ID: 0x567       DLC: 8  Data: 0x40 0x67 0x00 0x00 0x00 0x02 0x00 0x00
Standard ID: 0x5E7       DLC: 8  Data: 0x05 0x67 0x04 0x02 0x00 0x00 0xFF 0xFF
Standard ID: 0x567       DLC: 8  Data: 0x40 0x67 0x00 0x00 0x00 0x02 0x00 0x00
Standard ID: 0x567       DLC: 8  Data: 0x40 0x67 0x00 0x00 0x00 0x02 0x00 0x00
Standard ID: 0x567       DLC: 8  Data: 0x40 0x67 0x00 0x00 0x00 0x02 0x00 0x00
Standard ID: 0x5E7       DLC: 8  Data: 0x27 0x67 0x2D 0xFF 0xFF 0xFF 0xFF 0xFF
Standard ID: 0x5E7       DLC: 8  Data: 0x27 0x67 0x2D 0xFF 0xFF 0xFF 0xFF 0xFF
Standard ID: 0x5E7       DLC: 8  Data: 0x27 0x67 0x2D 0xFF 0xFF 0xFF 0xFF 0xFF
Standard ID: 0x567       DLC: 8  Data: 0x40 0x67 0x00 0x00 0x00 0x02 0x00 0x00
Standard ID: 0x567       DLC: 8  Data: 0x40 0x67 0x00 0x00 0x00 0x00 0x00 0x00
Standard ID: 0x5E7       DLC: 8  Data: 0x05 0x67 0x04 0x02 0x00 0x00 0xFF 0xFF
Standard ID: 0x25B       DLC: 8  Data: 0x02 0xFF 0x7F 0x00 0x80 0x00 0xC0 0xC0
Standard ID: 0x5E7       DLC: 8  Data: 0x05 0x67 0x04 0x02 0x00 0x00 0xFF 0xFF
Standard ID: 0x5E7       DLC: 8  Data: 0x05 0x67 0x04 0x02 0x00 0x00 0xFF 0xFF
Standard ID: 0x567       DLC: 8  Data: 0x40 0x67 0x00 0x00 0x00 0x02 0x00 0x00
Standard ID: 0x25B       DLC: 8  Data: 0x03 0xFF 0x7F 0x00 0x20 0x00 0xC0 0xC0
Standard ID: 0x25B       DLC: 8  Data: 0x04 0xFF 0x7F 0x00 0x80 0x00 0xC0 0xC0
Standard ID: 0x567       DLC: 8  Data: 0x40 0x67 0x00 0x00 0x00 0x02 0x00 0x00
Standard ID: 0x25B       DLC: 8  Data: 0x05 0xFF 0x7F 0x00 0x20 0x00 0xC0 0xC0
Standard ID: 0x25B       DLC: 8  Data: 0x06 0xFF 0x7F 0x00 0x80 0x00 0xC0 0xC0
Standard ID: 0x25B       DLC: 8  Data: 0x07 0xFF 0x7F 0x00 0x20 0x00 0xC0 0xC0
Standard ID: 0x567       DLC: 8  Data: 0x40 0x67 0x00 0x00 0x00 0x02 0x00 0x00
Standard ID: 0x25B       DLC: 8  Data: 0x08 0xFF 0x7F 0x00 0x80 0x00 0xC0 0xC0
Standard ID: 0x25B       DLC: 8  Data: 0x09 0xFF 0x7F 0x00 0x20 0x00 0xC0 0xC0
Standard ID: 0x25B       DLC: 8  Data: 0x0A 0xFF 0x7F 0x00 0x80 0x00 0xC0 0xC0
Standard ID: 0x25B       DLC: 8  Data: 0x0B 0xFF 0x7F 0x00 0x00 0x00 0xC0 0xC0
Standard ID: 0x567       DLC: 8  Data: 0x40 0x67 0x00 0x00 0x00 0x02 0x00 0x00
Standard ID: 0x5E7       DLC: 8  Data: 0x05 0x67 0x04 0x02 0x00 0x00 0xFF 0xFF
Standard ID: 0x25B       DLC: 8  Data: 0x0C 0xFF 0x7F 0x00 0x00 0x04 0xC0 0xC0
Standard ID: 0x5E7       DLC: 8  Data: 0x05 0x67 0x04 0x02 0x00 0x00 0xFF 0xFF
Standard ID: 0x5E7       DLC: 8  Data: 0x05 0x67 0x04 0x02 0x00 0x00 0xFF 0xFF
Standard ID: 0x567       DLC: 8  Data: 0x40 0x67 0x00 0x00 0x00 0x02 0x00 0x00
Standard ID: 0x25B       DLC: 8  Data: 0x0D 0xFF 0x7F 0x00 0x00 0x01 0xC0 0xC0
Standard ID: 0x25B       DLC: 8  Data: 0x0E 0xFF 0x7F 0x00 0x00 0x04 0xC0 0xC0
Standard ID: 0x25B       DLC: 8  Data: 0x0F 0xFF 0x7F 0x00 0x00 0x01 0xC0 0xC0
Standard ID: 0x567       DLC: 8  Data: 0x40 0x67 0x00 0x00 0x00 0x02 0x00 0x00
Standard ID: 0x25B       DLC: 8  Data: 0x10 0xFF 0x7F 0x00 0x00 0x04 0xC0 0xC0
Standard ID: 0x25B       DLC: 8  Data: 0x11 0xFF 0x7F 0x00 0x00 0x00 0xC0 0xC0
Standard ID: 0x567       DLC: 8  Data: 0x40 0x67 0x00 0x00 0x00 0x02 0x00 0x00
Standard ID: 0x567       DLC: 8  Data: 0x40 0x67 0x00 0x00 0x00 0x02 0x00 0x00
Standard ID: 0x5E7       DLC: 8  Data: 0x05 0x67 0x04 0x02 0x00 0x00 0xFF 0xFF
Standard ID: 0x25B       DLC: 8  Data: 0x00 0xFF 0x7F 0x01 0x00 0x00 0xC0 0xC0
Standard ID: 0x567       DLC: 8  Data: 0x40 0x67 0x00 0x00 0x00 0x02 0x00 0x00
Standard ID: 0x25B       DLC: 8  Data: 0x01 0xFF 0x7F 0x00 0x00 0x00 0xC0 0xC0
Standard ID: 0x5E7       DLC: 8  Data: 0x05 0x67 0x04 0x02 0x00 0x00 0xFF 0xFF
Standard ID: 0x567       DLC: 8  Data: 0x40 0x67 0x00 0x00 0x00 0x02 0x00 0x00
Standard ID: 0x5E7       DLC: 8  Data: 0x05 0x67 0x04 0x02 0x00 0x00 0xFF 0xFF
Standard ID: 0x567       DLC: 8  Data: 0x40 0x67 0x00 0x00 0x00 0x02 0x00 0x00
Standard ID: 0x567       DLC: 8  Data: 0x40 0x67 0x00 0x00 0x00 0x02 0x00 0x00
Standard ID: 0x5E7       DLC: 8  Data: 0x05 0x67 0x04 0x02 0x00 0x00 0xFF 0xFF
Standard ID: 0x25B       DLC: 8  Data: 0x02 0xFF 0x7F 0x01 0x00 0x00 0xC0 0xC0
Standard ID: 0x567       DLC: 8  Data: 0x40 0x67 0x00 0x00 0x00 0x02 0x00 0x00
Standard ID: 0x5E7       DLC: 8  Data: 0x05 0x67 0x04 0x02 0x00 0x00 0xFF 0xFF
Standard ID: 0x25B       DLC: 8  Data: 0x03 0xFF 0x7F 0x00 0x00 0x00 0xC0 0xC0
Standard ID: 0x5E7       DLC: 8  Data: 0x27 0x67 0x2D 0xFF 0xFF 0xFF 0xFF 0xFF
Standard ID: 0x5E7       DLC: 8  Data: 0x05 0x67 0x04 0x02 0x00 0x00 0xFF 0xFF
Standard ID: 0x5E7       DLC: 8  Data: 0x27 0x67 0x2D 0xFF 0xFF 0xFF 0xFF 0xFF
Standard ID: 0x5E7       DLC: 8  Data: 0x27 0x67 0x2D 0xFF 0xFF 0xFF 0xFF 0xFF
Standard ID: 0x567       DLC: 8  Data: 0x40 0x67 0x00 0x00 0x00 0x02 0x00 0x00
Standard ID: 0x5E7       DLC: 8  Data: 0x05 0x67 0x04 0x02 0x00 0x00 0xFF 0xFF
Standard ID: 0x25B       DLC: 8  Data: 0x04 0xFF 0x7F 0x00 0x80 0x00 0xC0 0xC0
Standard ID: 0x567       DLC: 8  Data: 0x40 0x67 0x00 0x00 0x00 0x02 0x00 0x00
Standard ID: 0x5E7       DLC: 8  Data: 0x05 0x67 0x04 0x02 0x00 0x00 0xFF 0xFF
Standard ID: 0x5E7       DLC: 8  Data: 0x05 0x67 0x04 0x02 0x00 0x00 0xFF 0xFF
Standard ID: 0x25B       DLC: 8  Data: 0x05 0xFF 0x7F 0x00 0x20 0x00 0xC0 0xC0
Standard ID: 0x25B       DLC: 8  Data: 0x06 0xFF 0x7F 0x00 0x80 0x00 0xC0 0xC0
Standard ID: 0x567       DLC: 8  Data: 0x40 0x67 0x00 0x00 0x00 0x02 0x00 0x00
Standard ID: 0x25B       DLC: 8  Data: 0x07 0xFF 0x7F 0x00 0x20 0x00 0xC0 0xC0
Standard ID: 0x25B       DLC: 8  Data: 0x08 0xFF 0x7F 0x00 0x80 0x00 0xC0 0xC0
Standard ID: 0x25B       DLC: 8  Data: 0x09 0xFF 0x7F 0x00 0x20 0x00 0xC0 0xC0
Standard ID: 0x567       DLC: 8  Data: 0x40 0x67 0x00 0x00 0x00 0x02 0x00 0x00
Standard ID: 0x25B       DLC: 8  Data: 0x0A 0xFF 0x7F 0x00 0x80 0x00 0xC0 0xC0
Standard ID: 0x25B       DLC: 8  Data: 0x0B 0xFF 0x7F 0x00 0x20 0x00 0xC0 0xC0
Standard ID: 0x25B       DLC: 8  Data: 0x0C 0xFF 0x7F 0x00 0x80 0x00 0xC0 0xC0
Standard ID: 0x25B       DLC: 8  Data: 0x0D 0xFF 0x7F 0x00 0x00 0x00 0xC0 0xC0
Standard ID: 0x567       DLC: 8  Data: 0x40 0x67 0x00 0x00 0x00 0x02 0x00 0x00
Standard ID: 0x5E7       DLC: 8  Data: 0x05 0x67 0x04 0x02 0x00 0x00 0xFF 0xFF
Standard ID: 0x25B       DLC: 8  Data: 0x0E 0xFF 0x7F 0x00 0x00 0x20 0xC0 0xC0
Standard ID: 0x567       DLC: 8  Data: 0x40 0x67 0x00 0x00 0x00 0x02 0x00 0x00
Standard ID: 0x5E7       DLC: 8  Data: 0x05 0x67 0x04 0x02 0x00 0x00 0xFF 0xFF
Standard ID: 0x25B       DLC: 8  Data: 0x0F 0xFF 0x7F 0x00 0x00 0x08 0xC0 0xC0
Standard ID: 0x5E7       DLC: 8  Data: 0x05 0x67 0x04 0x02 0x00 0x00 0xFF 0xFF
Standard ID: 0x25B       DLC: 8  Data: 0x10 0xFF 0x7F 0x00 0x00 0x20 0xC0 0xC0
Standard ID: 0x25B       DLC: 8  Data: 0x11 0xFF 0x7F 0x00 0x00 0x08 0xC0 0xC0
Standard ID: 0x567       DLC: 8  Data: 0x40 0x67 0x00 0x00 0x00 0x02 0x00 0x00
Standard ID: 0x25B       DLC: 8  Data: 0x12 0xFF 0x7F 0x00 0x00 0x20 0xC0 0xC0
Standard ID: 0x25B       DLC: 8  Data: 0x13 0xFF 0x7F 0x00 0x00 0x00 0xC0 0xC0
Standard ID: 0x567       DLC: 8  Data: 0x40 0x67 0x00 0x00 0x00 0x02 0x00 0x00
Standard ID: 0x5E7       DLC: 8  Data: 0x05 0x67 0x04 0x02 0x00 0x00 0xFF 0xFF
Standard ID: 0x25B       DLC: 8  Data: 0x14 0xFF 0x7F 0x01 0x00 0x00 0xC0 0xC0
Standard ID: 0x5E7       DLC: 8  Data: 0x05 0x67 0x04 0x02 0x00 0x00 0xFF 0xFF
Standard ID: 0x25B       DLC: 8  Data: 0x15 0xFF 0x7F 0x00 0x00 0x00 0xC0 0xC0
Standard ID: 0x5E7       DLC: 8  Data: 0x05 0x67 0x04 0x02 0x00 0x00 0xFF 0xFF
Standard ID: 0x567       DLC: 8  Data: 0x40 0x67 0x00 0x00 0x00 0x02 0x00 0x00
Standard ID: 0x5E7       DLC: 8  Data: 0x05 0x67 0x04 0x02 0x00 0x00 0xFF 0xFF
Standard ID: 0x25B       DLC: 8  Data: 0x16 0xFF 0x7F 0x01 0x00 0x00 0xC0 0xC0
Standard ID: 0x5E7       DLC: 8  Data: 0x05 0x67 0x04 0x02 0x00 0x00 0xFF 0xFF
Standard ID: 0x25B       DLC: 8  Data: 0x17 0xFF 0x7F 0x00 0x00 0x00 0xC0 0xC0
Standard ID: 0x5E7       DLC: 8  Data: 0x05 0x67 0x04 0x02 0x00 0x00 0xFF 0xFF
Standard ID: 0x567       DLC: 8  Data: 0x40 0x67 0x00 0x00 0x00 0x02 0x00 0x00
Standard ID: 0x567       DLC: 8  Data: 0x40 0x67 0x00 0x00 0x00 0x02 0x00 0x00
Standard ID: 0x5E7       DLC: 8  Data: 0x05 0x67 0x04 0x02 0x00 0x00 0xFF 0xFF
Standard ID: 0x25B       DLC: 8  Data: 0x00 0xFF 0x7F 0x01 0x00 0x00 0xC0 0xC0
Standard ID: 0x25B       DLC: 8  Data: 0x01 0xFF 0x7F 0x00 0x00 0x00 0xC0 0xC0
Standard ID: 0x567       DLC: 8  Data: 0x40 0x67 0x00 0x00 0x00 0x02 0x00 0x00
Standard ID: 0x5E7       DLC: 8  Data: 0x05 0x67 0x04 0x02 0x00 0x00 0xFF 0xFF
Standard ID: 0x567       DLC: 8  Data: 0x40 0x67 0x00 0x00 0x00 0x02 0x00 0x00
Standard ID: 0x25B       DLC: 8  Data: 0x02 0xFF 0x7F 0x01 0x00 0x00 0xC0 0xC0
Standard ID: 0x5E7       DLC: 8  Data: 0x05 0x67 0x04 0x02 0x00 0x00 0xFF 0xFF
Standard ID: 0x25B       DLC: 8  Data: 0x03 0xFF 0x7F 0x00 0x00 0x00 0xC0 0xC0
Standard ID: 0x567       DLC: 8  Data: 0x40 0x67 0x00 0x00 0x00 0x02 0x00 0x00
Standard ID: 0x567       DLC: 8  Data: 0x40 0x67 0x00 0x00 0x00 0x02 0x00 0x00
Standard ID: 0x567       DLC: 8  Data: 0x40 0x67 0x00 0x00 0x00 0x02 0x00 0x00
Standard ID: 0x5E7       DLC: 8  Data: 0x05 0x67 0x04 0x02 0x00 0x00 0xFF 0xFF
Standard ID: 0x25B       DLC: 8  Data: 0x04 0xFF 0x7F 0x01 0x00 0x00 0xC0 0xC0
Standard ID: 0x5E7       DLC: 8  Data: 0x27 0x67 0x2D 0xFF 0xFF 0xFF 0xFF 0xFF
Standard ID: 0x5E7       DLC: 8  Data: 0x05 0x67 0x04 0x02 0x00 0x00 0xFF 0xFF
Standard ID: 0x5E7       DLC: 8  Data: 0x27 0x67 0x2D 0xFF 0xFF 0xFF 0xFF 0xFF
Standard ID: 0x25B       DLC: 8  Data: 0x05 0xFF 0x7F 0x00 0x00 0x00 0xC0 0xC0
Standard ID: 0x5E7       DLC: 8  Data: 0x05 0x67 0x04 0x02 0x00 0x00 0xFF 0xFF
Standard ID: 0x5E7       DLC: 8  Data: 0x27 0x67 0x2D 0xFF 0xFF 0xFF 0xFF 0xFF
Standard ID: 0x567       DLC: 8  Data: 0x40 0x67 0x00 0x00 0x00 0x02 0x00 0x00
Standard ID: 0x567       DLC: 8  Data: 0x40 0x67 0x00 0x00 0x00 0x00 0x00 0x00
Standard ID: 0x5E7       DLC: 8  Data: 0x05 0x67 0x04 0x02 0x00 0x00 0xFF 0xFF
Standard ID: 0x25B       DLC: 8  Data: 0x06 0xFF 0x7F 0x00 0x80 0x00 0xC0 0xC0
Standard ID: 0x5E7       DLC: 8  Data: 0x05 0x67 0x04 0x02 0x00 0x00 0xFF 0xFF
Standard ID: 0x5E7       DLC: 8  Data: 0x05 0x67 0x04 0x02 0x00 0x00 0xFF 0xFF
Standard ID: 0x567       DLC: 8  Data: 0x40 0x67 0x00 0x00 0x00 0x02 0x00 0x00
Standard ID: 0x25B       DLC: 8  Data: 0x07 0xFF 0x7F 0x00 0x20 0x00 0xC0 0xC0
Standard ID: 0x25B       DLC: 8  Data: 0x08 0xFF 0x7F 0x00 0x80 0x00 0xC0 0xC0
Standard ID: 0x25B       DLC: 8  Data: 0x09 0xFF 0x7F 0x00 0x20 0x00 0xC0 0xC0
Standard ID: 0x567       DLC: 8  Data: 0x40 0x67 0x00 0x00 0x00 0x02 0x00 0x00
Standard ID: 0x25B       DLC: 8  Data: 0x0A 0xFF 0x7F 0x00 0x80 0x00 0xC0 0xC0
Standard ID: 0x25B       DLC: 8  Data: 0x0B 0xFF 0x7F 0x00 0x20 0x00 0xC0 0xC0
Standard ID: 0x25B       DLC: 8  Data: 0x0C 0xFF 0x7F 0x00 0x80 0x00 0xC0 0xC0
Standard ID: 0x25B       DLC: 8  Data: 0x0D 0xFF 0x7F 0x00 0x00 0x00 0xC0 0xC0
Standard ID: 0x567       DLC: 8  Data: 0x40 0x67 0x00 0x00 0x00 0x02 0x00 0x00
Standard ID: 0x5E7       DLC: 8  Data: 0x05 0x67 0x04 0x02 0x00 0x00 0xFF 0xFF
Standard ID: 0x25B       DLC: 8  Data: 0x0E 0xFF 0x7F 0x00 0x00 0x20 0xC0 0xC0
Standard ID: 0x5E7       DLC: 8  Data: 0x05 0x67 0x04 0x02 0x00 0x00 0xFF 0xFF
Standard ID: 0x567       DLC: 8  Data: 0x40 0x67 0x00 0x00 0x00 0x02 0x00 0x00
Standard ID: 0x5E7       DLC: 8  Data: 0x05 0x67 0x04 0x02 0x00 0x00 0xFF 0xFF
Standard ID: 0x25B       DLC: 8  Data: 0x0F 0xFF 0x7F 0x00 0x00 0x08 0xC0 0xC0
Standard ID: 0x25B       DLC: 8  Data: 0x10 0xFF 0x7F 0x00 0x00 0x20 0xC0 0xC0
Standard ID: 0x25B       DLC: 8  Data: 0x11 0xFF 0x7F 0x00 0x00 0x08 0xC0 0xC0
Standard ID: 0x567       DLC: 8  Data: 0x40 0x67 0x00 0x00 0x00 0x02 0x00 0x00
Standard ID: 0x25B       DLC: 8  Data: 0x12 0xFF 0x7F 0x00 0x00 0x20 0xC0 0xC0
Standard ID: 0x25B       DLC: 8  Data: 0x13 0xFF 0x7F 0x00 0x00 0x08 0xC0 0xC0
Standard ID: 0x25B       DLC: 8  Data: 0x14 0xFF 0x7F 0x00 0x00 0x20 0xC0 0xC0
Standard ID: 0x567       DLC: 8  Data: 0x40 0x67 0x00 0x00 0x00 0x02 0x00 0x00
Standard ID: 0x25B       DLC: 8  Data: 0x15 0xFF 0x7F 0x00 0x00 0x08 0xC0 0xC0
Standard ID: 0x25B       DLC: 8  Data: 0x16 0xFF 0x7F 0x00 0x00 0x20 0xC0 0xC0
Standard ID: 0x25B       DLC: 8  Data: 0x17 0xFF 0x7F 0x00 0x00 0x00 0xC0 0xC0
Standard ID: 0x5E7       DLC: 8  Data: 0x05 0x67 0x04 0x02 0x00 0x00 0xFF 0xFF
Standard ID: 0x25B       DLC: 8  Data: 0x18 0xFF 0x7F 0x00 0x00 0x00 0xC4 0xC0
Standard ID: 0x5E7       DLC: 8  Data: 0x05 0x67 0x04 0x02 0x00 0x00 0xFF 0xFF
Standard ID: 0x25B       DLC: 8  Data: 0x19 0xFF 0x7F 0x00 0x00 0x00 0xC1 0xC0
Standard ID: 0x567       DLC: 8  Data: 0x40 0x67 0x00 0x00 0x00 0x02 0x00 0x00
Standard ID: 0x5E7       DLC: 8  Data: 0x05 0x67 0x04 0x02 0x00 0x00 0xFF 0xFF
Standard ID: 0x25B       DLC: 8  Data: 0x1A 0xFF 0x7F 0x00 0x00 0x00 0xC4 0xC0
Standard ID: 0x25B       DLC: 8  Data: 0x1B 0xFF 0x7F 0x00 0x00 0x00 0xC1 0xC0
Standard ID: 0x25B       DLC: 8  Data: 0x1C 0xFF 0x7F 0x00 0x00 0x00 0xC4 0xC0
Standard ID: 0x25B       DLC: 8  Data: 0x1D 0xFF 0x7F 0x00 0x00 0x00 0xC1 0xC0
Standard ID: 0x25B       DLC: 8  Data: 0x1E 0xFF 0x7F 0x00 0x00 0x00 0xC4 0xC0
Standard ID: 0x567       DLC: 8  Data: 0x40 0x67 0x00 0x00 0x00 0x02 0x00 0x00
Standard ID: 0x25B       DLC: 8  Data: 0x1F 0xFF 0x7F 0x00 0x00 0x00 0xC0 0xC0
Standard ID: 0x5E7       DLC: 8  Data: 0x05 0x67 0x04 0x02 0x00 0x00 0xFF 0xFF
Standard ID: 0x25B       DLC: 8  Data: 0x20 0xFF 0x7F 0x00 0x10 0x00 0xC0 0xC0
Standard ID: 0x567       DLC: 8  Data: 0x40 0x67 0x00 0x00 0x00 0x02 0x00 0x00
Standard ID: 0x5E7       DLC: 8  Data: 0x05 0x67 0x04 0x02 0x00 0x00 0xFF 0xFF
Standard ID: 0x25B       DLC: 8  Data: 0x21 0xFF 0x7F 0x00 0x04 0x00 0xC0 0xC0
Standard ID: 0x5E7       DLC: 8  Data: 0x05 0x67 0x04 0x02 0x00 0x00 0xFF 0xFF
Standard ID: 0x25B       DLC: 8  Data: 0x22 0xFF 0x7F 0x00 0x10 0x00 0xC0 0xC0
Standard ID: 0x25B       DLC: 8  Data: 0x23 0xFF 0x7F 0x00 0x04 0x00 0xC0 0xC0
Standard ID: 0x25B       DLC: 8  Data: 0x24 0xFF 0x7F 0x00 0x10 0x00 0xC0 0xC0
Standard ID: 0x25B       DLC: 8  Data: 0x25 0xFF 0x7F 0x00 0x00 0x00 0xC0 0xC0
Standard ID: 0x567       DLC: 8  Data: 0x40 0x67 0x00 0x00 0x00 0x02 0x00 0x00
Standard ID: 0x25B       DLC: 8  Data: 0x26 0xFF 0x7F 0x00 0x00 0x00 0xC0 0xE0
Standard ID: 0x25B       DLC: 8  Data: 0x27 0xFF 0x7F 0x00 0x00 0x00 0xC0 0xC8
Standard ID: 0x25B       DLC: 8  Data: 0x28 0xFF 0x7F 0x00 0x00 0x00 0xC0 0xE0
Standard ID: 0x25B       DLC: 8  Data: 0x29 0xFF 0x7F 0x00 0x00 0x00 0xC0 0xC8
Standard ID: 0x25B       DLC: 8  Data: 0x2A 0xFF 0x7F 0x00 0x00 0x00 0xC0 0xE0
Standard ID: 0x25B       DLC: 8  Data: 0x2B 0xFF 0x7F 0x00 0x00 0x00 0xC0 0xC0
Standard ID: 0x567       DLC: 8  Data: 0x40 0x67 0x00 0x00 0x00 0x02 0x00 0x00
Standard ID: 0x5E7       DLC: 8  Data: 0x05 0x67 0x04 0x02 0x00 0x00 0xFF 0xFF
Standard ID: 0x25B       DLC: 8  Data: 0x2C 0xFF 0x7F 0x00 0x00 0x00 0xC0 0xC4
Standard ID: 0x5E7       DLC: 8  Data: 0x05 0x67 0x04 0x02 0x00 0x00 0xFF 0xFF
Standard ID: 0x25B       DLC: 8  Data: 0x2D 0xFF 0x7F 0x00 0x00 0x00 0xC0 0xC1
Standard ID: 0x5E7       DLC: 8  Data: 0x05 0x67 0x04 0x02 0x00 0x00 0xFF 0xFF
Standard ID: 0x25B       DLC: 8  Data: 0x2E 0xFF 0x7F 0x00 0x00 0x00 0xC0 0xC4
Standard ID: 0x567       DLC: 8  Data: 0x40 0x67 0x00 0x00 0x00 0x02 0x00 0x00
Standard ID: 0x25B       DLC: 8  Data: 0x2F 0xFF 0x7F 0x00 0x00 0x00 0xC0 0xC1
Standard ID: 0x25B       DLC: 8  Data: 0x30 0xFF 0x7F 0x00 0x00 0x00 0xC0 0xC4
Standard ID: 0x25B       DLC: 8  Data: 0x31 0xFF 0x7F 0x00 0x00 0x00 0xC0 0xC0
Standard ID: 0x25B       DLC: 8  Data: 0x32 0xFF 0x7F 0x00 0x00 0x00 0xE0 0xC0
Standard ID: 0x25B       DLC: 8  Data: 0x33 0xFF 0x7F 0x00 0x00 0x00 0xC8 0xC0
Standard ID: 0x567       DLC: 8  Data: 0x40 0x67 0x00 0x00 0x00 0x02 0x00 0x00
Standard ID: 0x25B       DLC: 8  Data: 0x34 0xFF 0x7F 0x00 0x00 0x00 0xE0 0xC0
Standard ID: 0x25B       DLC: 8  Data: 0x35 0xFF 0x7F 0x00 0x00 0x00 0xC8 0xC0
Standard ID: 0x5E7       DLC: 8  Data: 0x05 0x67 0x04 0x02 0x00 0x00 0xFF 0xFF
Standard ID: 0x0BF       DLC: 8  Data: 0x00 0x01 0x20 0x5F 0x02 0x87 0x03 0x00
Standard ID: 0x0BF       DLC: 8  Data: 0x01 0x01 0xE0 0x60 0x02 0x87 0x03 0x00
Standard ID: 0x0BF       DLC: 8  Data: 0x02 0x01 0xD0 0x54 0x02 0x87 0x03 0x00
Standard ID: 0x0BF       DLC: 8  Data: 0x03 0x01 0xD0 0x54 0x02 0x87 0x03 0x00
Standard ID: 0x0BF       DLC: 8  Data: 0x04 0x00 0x00 0x00 0x11 0x00 0x00 0x00
Standard ID: 0x25B       DLC: 8  Data: 0x36 0xFF 0x7F 0x00 0x00 0x00 0xE0 0xC0
Standard ID: 0x5E7       DLC: 8  Data: 0x05 0x67 0x04 0x02 0x00 0x00 0xFF 0xFF
Standard ID: 0x25B       DLC: 8  Data: 0x37 0xFF 0x7F 0x00 0x00 0x00 0xC0 0xC0
Standard ID: 0x567       DLC: 8  Data: 0x40 0x67 0x00 0x00 0x00 0x02 0x00 0x00
Standard ID: 0x5E7       DLC: 8  Data: 0x05 0x67 0x04 0x02 0x00 0x00 0xFF 0xFF
Standard ID: 0x5E7       DLC: 8  Data: 0x05 0x67 0x04 0x02 0x00 0x00 0xFF 0xFF
Standard ID: 0x25B       DLC: 8  Data: 0x38 0xFF 0x7F 0x00 0x00 0x04 0xC0 0xC0
Standard ID: 0x5E7       DLC: 8  Data: 0x05 0x67 0x04 0x02 0x00 0x00 0xFF 0xFF
Standard ID: 0x25B       DLC: 8  Data: 0x39 0xFF 0x7F 0x00 0x00 0x01 0xC0 0xC0
Standard ID: 0x5E7       DLC: 8  Data: 0x05 0x67 0x04 0x02 0x00 0x00 0xFF 0xFF
Standard ID: 0x567       DLC: 8  Data: 0x40 0x67 0x00 0x00 0x00 0x02 0x00 0x00
Standard ID: 0x25B       DLC: 8  Data: 0x3A 0xFF 0x7F 0x00 0x00 0x04 0xC0 0xC0
Standard ID: 0x25B       DLC: 8  Data: 0x3B 0xFF 0x7F 0x00 0x00 0x01 0xC0 0xC0
Standard ID: 0x25B       DLC: 8  Data: 0x3C 0xFF 0x7F 0x00 0x00 0x04 0xC0 0xC0
Standard ID: 0x567       DLC: 8  Data: 0x40 0x67 0x00 0x00 0x00 0x02 0x00 0x00
Standard ID: 0x25B       DLC: 8  Data: 0x3D 0xFF 0x7F 0x00 0x00 0x00 0xC0 0xC0
Standard ID: 0x5E7       DLC: 8  Data: 0x05 0x67 0x04 0x02 0x00 0x00 0xFF 0xFF
Standard ID: 0x25B       DLC: 8  Data: 0x3E 0xFF 0x7F 0x01 0x00 0x00 0xC0 0xC0
Standard ID: 0x567       DLC: 8  Data: 0x40 0x67 0x00 0x00 0x00 0x02 0x00 0x00
Standard ID: 0x5E7       DLC: 8  Data: 0x05 0x67 0x04 0x02 0x00 0x00 0xFF 0xFF
Standard ID: 0x25B       DLC: 8  Data: 0x3F 0xFF 0x7F 0x00 0x00 0x00 0xC0 0xC0
Standard ID: 0x5E7       DLC: 8  Data: 0x05 0x67 0x04 0x02 0x00 0x00 0xFF 0xFF
Standard ID: 0x25B       DLC: 8  Data: 0x40 0xFF 0x7F 0x01 0x00 0x00 0xC0 0xC0
Standard ID: 0x25B       DLC: 8  Data: 0x41 0xFF 0x7F 0x00 0x00 0x00 0xC0 0xC0
Standard ID: 0x567       DLC: 8  Data: 0x40 0x67 0x00 0x00 0x00 0x02 0x00 0x00
Standard ID: 0x5E7       DLC: 8  Data: 0x05 0x67 0x04 0x02 0x00 0x00 0xFF 0xFF
Standard ID: 0x25B       DLC: 8  Data: 0x42 0xFF 0x7F 0x01 0x00 0x00 0xC0 0xC0
Standard ID: 0x5E7       DLC: 8  Data: 0x05 0x67 0x04 0x02 0x00 0x00 0xFF 0xFF
Standard ID: 0x25B       DLC: 8  Data: 0x43 0xFF 0x7F 0x00 0x00 0x00 0xC0 0xC0
Standard ID: 0x5E7       DLC: 8  Data: 0x05 0x67 0x04 0x02 0x00 0x00 0xFF 0xFF
Standard ID: 0x567       DLC: 8  Data: 0x40 0x67 0x00 0x00 0x00 0x02 0x00 0x00
Standard ID: 0x5E7       DLC: 8  Data: 0x05 0x67 0x04 0x02 0x00 0x00 0xFF 0xFF
Standard ID: 0x25B       DLC: 8  Data: 0x44 0xFF 0x7F 0x01 0x00 0x00 0xC0 0xC0
Standard ID: 0x5E7       DLC: 8  Data: 0x05 0x67 0x04 0x02 0x00 0x00 0xFF 0xFF
Standard ID: 0x25B       DLC: 8  Data: 0x45 0xFF 0x7F 0x00 0x00 0x00 0xC0 0xC0
Standard ID: 0x5E7       DLC: 8  Data: 0x05 0x67 0x04 0x02 0x00 0x00 0xFF 0xFF
Standard ID: 0x567       DLC: 8  Data: 0x40 0x67 0x00 0x00 0x00 0x02 0x00 0x00
Standard ID: 0x5E7       DLC: 8  Data: 0x05 0x67 0x04 0x02 0x00 0x00 0xFF 0xFF
Standard ID: 0x25B       DLC: 8  Data: 0x46 0xFF 0x7F 0x01 0x00 0x00 0xC0 0xC0
Standard ID: 0x5E7       DLC: 8  Data: 0x05 0x67 0x04 0x02 0x00 0x00 0xFF 0xFF
Standard ID: 0x25B       DLC: 8  Data: 0x47 0xFF 0x7F 0x00 0x00 0x00 0xC0 0xC0
Standard ID: 0x5E7       DLC: 8  Data: 0x05 0x67 0x04 0x02 0x00 0x00 0xFF 0xFF
Standard ID: 0x567       DLC: 8  Data: 0x40 0x67 0x00 0x00 0x00 0x02 0x00 0x00
